 i-sweep         v(VG)           v(VD)           v(Vbias)        gmrp            Ipeak_unit      gmron_unit      Ibias_unit      gmbias_unit     Ron_Gm_unit     width           length         
 5.00000000e-06  4.12500000e-01  1.65000000e+00  4.79857379e-01  7.65938607e-05  3.39594055e-06  6.49043198e-05  6.59244269e-06  9.27883171e-05  5.23637292e+09  1.00000000e-06  1.50000000e-07 
 1.00000000e-05  4.12500000e-01  1.65000000e+00  5.27135345e-01  1.24528358e-04  3.39594055e-06  6.49043198e-05  1.20588267e-05  1.40365360e-04  3.46149670e+09  1.00000000e-06  1.50000000e-07 
 1.50000000e-05  4.12500000e-01  1.65000000e+00  5.60052322e-01  1.64284862e-04  3.39594055e-06  6.49043198e-05  1.73154486e-05  1.79783408e-04  2.70255324e+09  1.00000000e-06  1.50000000e-07 
 2.00000000e-05  4.12500000e-01  1.65000000e+00  5.86108523e-01  1.98752868e-04  3.39594055e-06  6.49043198e-05  2.24390420e-05  2.13848720e-04  2.27204647e+09  1.00000000e-06  1.50000000e-07 
 2.50000000e-05  4.12500000e-01  1.65000000e+00  6.08245468e-01  2.29661268e-04  3.39594055e-06  6.49043198e-05  2.75074911e-05  2.44256620e-04  1.98919575e+09  1.00000000e-06  1.50000000e-07 
 3.00000000e-05  4.12500000e-01  1.65000000e+00  6.27721727e-01  2.57788485e-04  3.39594055e-06  6.49043198e-05  3.25318951e-05  2.71793580e-04  1.78765897e+09  1.00000000e-06  1.50000000e-07 
 5.00000000e-06  8.25000000e-01  1.65000000e+00  4.79857096e-01  7.65936095e-05  1.31833376e-04  5.98030812e-04  6.59241645e-06  9.27880669e-05  1.34885865e+08  1.00000000e-06  1.50000000e-07 
 1.00000000e-05  8.25000000e-01  1.65000000e+00  5.27135345e-01  1.24528358e-04  1.31833376e-04  5.98030812e-04  1.20588268e-05  1.40365360e-04  8.91658645e+07  1.00000000e-06  1.50000000e-07 
 1.50000000e-05  8.25000000e-01  1.65000000e+00  5.60052322e-01  1.64284862e-04  1.31833376e-04  5.98030812e-04  1.73154486e-05  1.79783408e-04  6.96159833e+07  1.00000000e-06  1.50000000e-07 
 2.00000000e-05  8.25000000e-01  1.65000000e+00  5.86108523e-01  1.98752868e-04  1.31833376e-04  5.98030812e-04  2.24390420e-05  2.13848720e-04  5.85264139e+07  1.00000000e-06  1.50000000e-07 
 2.50000000e-05  8.25000000e-01  1.65000000e+00  6.08245468e-01  2.29661268e-04  1.31833376e-04  5.98030812e-04  2.75074911e-05  2.44256620e-04  5.12403664e+07  1.00000000e-06  1.50000000e-07 
 3.00000000e-05  8.25000000e-01  1.65000000e+00  6.27721727e-01  2.57788485e-04  1.31833376e-04  5.98030812e-04  3.25318951e-05  2.71793580e-04  4.60489122e+07  1.00000000e-06  1.50000000e-07 
 5.00000000e-06  1.23750000e+00  1.65000000e+00  4.79857096e-01  7.65936095e-05  4.45554366e-04  8.50988030e-04  6.59241645e-06  9.27880669e-05  3.99108625e+07  1.00000000e-06  1.50000000e-07 
 1.00000000e-05  1.23750000e+00  1.65000000e+00  5.27135345e-01  1.24528358e-04  4.45554366e-04  8.50988030e-04  1.20588268e-05  1.40365360e-04  2.63829464e+07  1.00000000e-06  1.50000000e-07 
 1.50000000e-05  1.23750000e+00  1.65000000e+00  5.60052322e-01  1.64284862e-04  4.45554366e-04  8.50988030e-04  1.73154486e-05  1.79783408e-04  2.05984069e+07  1.00000000e-06  1.50000000e-07 
 2.00000000e-05  1.23750000e+00  1.65000000e+00  5.86108523e-01  1.98752868e-04  4.45554366e-04  8.50988030e-04  2.24390420e-05  2.13848720e-04  1.73171566e+07  1.00000000e-06  1.50000000e-07 
 2.50000000e-05  1.23750000e+00  1.65000000e+00  6.08245468e-01  2.29661268e-04  4.45554366e-04  8.50988030e-04  2.75074911e-05  2.44256620e-04  1.51613159e+07  1.00000000e-06  1.50000000e-07 
 3.00000000e-05  1.23750000e+00  1.65000000e+00  6.27721727e-01  2.57788485e-04  4.45554366e-04  8.50988030e-04  3.25318951e-05  2.71793580e-04  1.36252364e+07  1.00000000e-06  1.50000000e-07 
 5.00000000e-06  1.65000000e+00  1.65000000e+00  4.79857096e-01  7.65936095e-05  8.00114342e-04  8.48821422e-04  6.59241645e-06  9.27880669e-05  2.22248973e+07  1.00000000e-06  1.50000000e-07 
 1.00000000e-05  1.65000000e+00  1.65000000e+00  5.27135345e-01  1.24528358e-04  8.00114342e-04  8.48821422e-04  1.20588268e-05  1.40365360e-04  1.46916964e+07  1.00000000e-06  1.50000000e-07 
 1.50000000e-05  1.65000000e+00  1.65000000e+00  5.60052322e-01  1.64284862e-04  8.00114342e-04  8.48821422e-04  1.73154486e-05  1.79783408e-04  1.14704982e+07  1.00000000e-06  1.50000000e-07 
 2.00000000e-05  1.65000000e+00  1.65000000e+00  5.86108523e-01  1.98752868e-04  8.00114342e-04  8.48821422e-04  2.24390420e-05  2.13848720e-04  9.64329014e+06  1.00000000e-06  1.50000000e-07 
 2.50000000e-05  1.65000000e+00  1.65000000e+00  6.08245468e-01  2.29661268e-04  8.00114342e-04  8.48821422e-04  2.75074911e-05  2.44256620e-04  8.44278143e+06  1.00000000e-06  1.50000000e-07 
 3.00000000e-05  1.65000000e+00  1.65000000e+00  6.27721727e-01  2.57788485e-04  8.00114342e-04  8.48821422e-04  3.25318951e-05  2.71793580e-04  7.58739501e+06  1.00000000e-06  1.50000000e-07 
 i-sweep         v(VG)           v(VD)           v(Vbias)        gmrp            Ipeak_unit      gmron_unit      Ibias_unit      gmbias_unit     Ron_Gm_unit     width           length         
 5.00000000e-06  4.12500000e-01  1.60000000e+00  4.79857379e-01  7.65938607e-05  3.32695490e-06  6.37134865e-05  6.59244269e-06  9.27883171e-05  5.18298284e+09  1.00000000e-06  1.50000000e-07 
 1.00000000e-05  4.12500000e-01  1.60000000e+00  5.27135345e-01  1.24528358e-04  3.32695490e-06  6.37134865e-05  1.20588267e-05  1.40365360e-04  3.42620327e+09  1.00000000e-06  1.50000000e-07 
 1.50000000e-05  4.12500000e-01  1.60000000e+00  5.60052322e-01  1.64284862e-04  3.32695490e-06  6.37134865e-05  1.73154486e-05  1.79783408e-04  2.67499800e+09  1.00000000e-06  1.50000000e-07 
 2.00000000e-05  4.12500000e-01  1.60000000e+00  5.86108523e-01  1.98752868e-04  3.32695490e-06  6.37134865e-05  2.24390420e-05  2.13848720e-04  2.24888068e+09  1.00000000e-06  1.50000000e-07 
 2.50000000e-05  4.12500000e-01  1.60000000e+00  6.08245468e-01  2.29661268e-04  3.32695490e-06  6.37134865e-05  2.75074911e-05  2.44256620e-04  1.96891391e+09  1.00000000e-06  1.50000000e-07 
 3.00000000e-05  4.12500000e-01  1.60000000e+00  6.27721727e-01  2.57788485e-04  3.32695490e-06  6.37134865e-05  3.25318951e-05  2.71793580e-04  1.76943199e+09  1.00000000e-06  1.50000000e-07 
 5.00000000e-06  8.25000000e-01  1.60000000e+00  4.79857096e-01  7.65936095e-05  1.30938283e-04  5.95441735e-04  6.59241645e-06  9.27880669e-05  1.31692552e+08  1.00000000e-06  1.50000000e-07 
 1.00000000e-05  8.25000000e-01  1.60000000e+00  5.27135345e-01  1.24528358e-04  1.30938283e-04  5.95441735e-04  1.20588268e-05  1.40365360e-04  8.70549353e+07  1.00000000e-06  1.50000000e-07 
 1.50000000e-05  8.25000000e-01  1.60000000e+00  5.60052322e-01  1.64284862e-04  1.30938283e-04  5.95441735e-04  1.73154486e-05  1.79783408e-04  6.79678816e+07  1.00000000e-06  1.50000000e-07 
 2.00000000e-05  8.25000000e-01  1.60000000e+00  5.86108523e-01  1.98752868e-04  1.30938283e-04  5.95441735e-04  2.24390420e-05  2.13848720e-04  5.71408487e+07  1.00000000e-06  1.50000000e-07 
 2.50000000e-05  8.25000000e-01  1.60000000e+00  6.08245468e-01  2.29661268e-04  1.30938283e-04  5.95441735e-04  2.75074911e-05  2.44256620e-04  5.00272925e+07  1.00000000e-06  1.50000000e-07 
 3.00000000e-05  8.25000000e-01  1.60000000e+00  6.27721727e-01  2.57788485e-04  1.30938283e-04  5.95441735e-04  3.25318951e-05  2.71793580e-04  4.49587417e+07  1.00000000e-06  1.50000000e-07 
 5.00000000e-06  1.23750000e+00  1.60000000e+00  4.79857096e-01  7.65936095e-05  4.43614676e-04  8.48397967e-04  6.59241645e-06  9.27880669e-05  3.88706632e+07  1.00000000e-06  1.50000000e-07 
 1.00000000e-05  1.23750000e+00  1.60000000e+00  5.27135345e-01  1.24528358e-04  4.43614676e-04  8.48397967e-04  1.20588268e-05  1.40365360e-04  2.56953260e+07  1.00000000e-06  1.50000000e-07 
 1.50000000e-05  1.23750000e+00  1.60000000e+00  5.60052322e-01  1.64284862e-04  4.43614676e-04  8.48397967e-04  1.73154486e-05  1.79783408e-04  2.00615493e+07  1.00000000e-06  1.50000000e-07 
 2.00000000e-05  1.23750000e+00  1.60000000e+00  5.86108523e-01  1.98752868e-04  4.43614676e-04  8.48397967e-04  2.24390420e-05  2.13848720e-04  1.68658185e+07  1.00000000e-06  1.50000000e-07 
 2.50000000e-05  1.23750000e+00  1.60000000e+00  6.08245468e-01  2.29661268e-04  4.43614676e-04  8.48397967e-04  2.75074911e-05  2.44256620e-04  1.47661656e+07  1.00000000e-06  1.50000000e-07 
 3.00000000e-05  1.23750000e+00  1.60000000e+00  6.27721727e-01  2.57788485e-04  4.43614676e-04  8.48397967e-04  3.25318951e-05  2.71793580e-04  1.32701210e+07  1.00000000e-06  1.50000000e-07 
 5.00000000e-06  1.65000000e+00  1.60000000e+00  4.79857096e-01  7.65936095e-05  7.96928786e-04  8.45173567e-04  6.59241645e-06  9.27880669e-05  2.16375628e+07  1.00000000e-06  1.50000000e-07 
 1.00000000e-05  1.65000000e+00  1.60000000e+00  5.27135345e-01  1.24528358e-04  7.96928786e-04  8.45173567e-04  1.20588268e-05  1.40365360e-04  1.43034408e+07  1.00000000e-06  1.50000000e-07 
 1.50000000e-05  1.65000000e+00  1.60000000e+00  5.60052322e-01  1.64284862e-04  7.96928786e-04  8.45173567e-04  1.73154486e-05  1.79783408e-04  1.11673688e+07  1.00000000e-06  1.50000000e-07 
 2.00000000e-05  1.65000000e+00  1.60000000e+00  5.86108523e-01  1.98752868e-04  7.96928786e-04  8.45173567e-04  2.24390420e-05  2.13848720e-04  9.38844817e+06  1.00000000e-06  1.50000000e-07 
 2.50000000e-05  1.65000000e+00  1.60000000e+00  6.08245468e-01  2.29661268e-04  7.96928786e-04  8.45173567e-04  2.75074911e-05  2.44256620e-04  8.21966515e+06  1.00000000e-06  1.50000000e-07 
 3.00000000e-05  1.65000000e+00  1.60000000e+00  6.27721727e-01  2.57788485e-04  7.96928786e-04  8.45173567e-04  3.25318951e-05  2.71793580e-04  7.38688392e+06  1.00000000e-06  1.50000000e-07 
 i-sweep         v(VG)           v(VD)           v(Vbias)        gmrp            Ipeak_unit      gmron_unit      Ibias_unit      gmbias_unit     Ron_Gm_unit     width           length         
 5.00000000e-06  4.12500000e-01  1.23750000e+00  4.79857379e-01  7.65938607e-05  2.79851941e-06  5.45695667e-05  6.59244269e-06  9.27883171e-05  4.76566583e+09  1.00000000e-06  1.50000000e-07 
 1.00000000e-05  4.12500000e-01  1.23750000e+00  5.27135345e-01  1.24528358e-04  2.79851941e-06  5.45695667e-05  1.20588267e-05  1.40365360e-04  3.15033647e+09  1.00000000e-06  1.50000000e-07 
 1.50000000e-05  4.12500000e-01  1.23750000e+00  5.60052322e-01  1.64284862e-04  2.79851941e-06  5.45695667e-05  1.73154486e-05  1.79783408e-04  2.45961581e+09  1.00000000e-06  1.50000000e-07 
 2.00000000e-05  4.12500000e-01  1.23750000e+00  5.86108523e-01  1.98752868e-04  2.79851941e-06  5.45695667e-05  2.24390420e-05  2.13848720e-04  2.06780809e+09  1.00000000e-06  1.50000000e-07 
 2.50000000e-05  4.12500000e-01  1.23750000e+00  6.08245468e-01  2.29661268e-04  2.79851941e-06  5.45695667e-05  2.75074911e-05  2.44256620e-04  1.81038333e+09  1.00000000e-06  1.50000000e-07 
 3.00000000e-05  4.12500000e-01  1.23750000e+00  6.27721727e-01  2.57788485e-04  2.79851941e-06  5.45695667e-05  3.25318951e-05  2.71793580e-04  1.62696305e+09  1.00000000e-06  1.50000000e-07 
 5.00000000e-06  8.25000000e-01  1.23750000e+00  4.79857096e-01  7.65936095e-05  1.23790869e-04  5.74226176e-04  6.59241645e-06  9.27880669e-05  1.07736898e+08  1.00000000e-06  1.50000000e-07 
 1.00000000e-05  8.25000000e-01  1.23750000e+00  5.27135345e-01  1.24528358e-04  1.23790869e-04  5.74226176e-04  1.20588268e-05  1.40365360e-04  7.12191279e+07  1.00000000e-06  1.50000000e-07 
 1.50000000e-05  8.25000000e-01  1.23750000e+00  5.60052322e-01  1.64284862e-04  1.23790869e-04  5.74226176e-04  1.73154486e-05  1.79783408e-04  5.56041221e+07  1.00000000e-06  1.50000000e-07 
 2.00000000e-05  8.25000000e-01  1.23750000e+00  5.86108523e-01  1.98752868e-04  1.23790869e-04  5.74226176e-04  2.24390420e-05  2.13848720e-04  4.67465905e+07  1.00000000e-06  1.50000000e-07 
 2.50000000e-05  8.25000000e-01  1.23750000e+00  6.08245468e-01  2.29661268e-04  1.23790869e-04  5.74226176e-04  2.75074911e-05  2.44256620e-04  4.09270322e+07  1.00000000e-06  1.50000000e-07 
 3.00000000e-05  8.25000000e-01  1.23750000e+00  6.27721727e-01  2.57788485e-04  1.23790869e-04  5.74226176e-04  3.25318951e-05  2.71793580e-04  3.67804808e+07  1.00000000e-06  1.50000000e-07 
 5.00000000e-06  1.23750000e+00  1.23750000e+00  4.79857096e-01  7.65936095e-05  4.27286065e-04  8.23962529e-04  6.59241645e-06  9.27880669e-05  3.12129165e+07  1.00000000e-06  1.50000000e-07 
 1.00000000e-05  1.23750000e+00  1.23750000e+00  5.27135345e-01  1.24528358e-04  4.27286065e-04  8.23962529e-04  1.20588268e-05  1.40365360e-04  2.06331974e+07  1.00000000e-06  1.50000000e-07 
 1.50000000e-05  1.23750000e+00  1.23750000e+00  5.60052322e-01  1.64284862e-04  4.27286065e-04  8.23962529e-04  1.73154486e-05  1.79783408e-04  1.61093075e+07  1.00000000e-06  1.50000000e-07 
 2.00000000e-05  1.23750000e+00  1.23750000e+00  5.86108523e-01  1.98752868e-04  4.27286065e-04  8.23962529e-04  2.24390420e-05  2.13848720e-04  1.35431542e+07  1.00000000e-06  1.50000000e-07 
 2.50000000e-05  1.23750000e+00  1.23750000e+00  6.08245468e-01  2.29661268e-04  4.27286065e-04  8.23962529e-04  2.75074911e-05  2.44256620e-04  1.18571451e+07  1.00000000e-06  1.50000000e-07 
 3.00000000e-05  1.23750000e+00  1.23750000e+00  6.27721727e-01  2.57788485e-04  4.27286065e-04  8.23962529e-04  3.25318951e-05  2.71793580e-04  1.06558300e+07  1.00000000e-06  1.50000000e-07 
 5.00000000e-06  1.65000000e+00  1.23750000e+00  4.79857096e-01  7.65936095e-05  7.68045267e-04  8.07023641e-04  6.59241645e-06  9.27880669e-05  1.73646592e+07  1.00000000e-06  1.50000000e-07 
 1.00000000e-05  1.65000000e+00  1.23750000e+00  5.27135345e-01  1.24528358e-04  7.68045267e-04  8.07023641e-04  1.20588268e-05  1.40365360e-04  1.14788517e+07  1.00000000e-06  1.50000000e-07 
 1.50000000e-05  1.65000000e+00  1.23750000e+00  5.60052322e-01  1.64284862e-04  7.68045267e-04  8.07023641e-04  1.73154486e-05  1.79783408e-04  8.96207930e+06  1.00000000e-06  1.50000000e-07 
 2.00000000e-05  1.65000000e+00  1.23750000e+00  5.86108523e-01  1.98752868e-04  7.68045267e-04  8.07023641e-04  2.24390420e-05  2.13848720e-04  7.53445312e+06  1.00000000e-06  1.50000000e-07 
 2.50000000e-05  1.65000000e+00  1.23750000e+00  6.08245468e-01  2.29661268e-04  7.68045267e-04  8.07023641e-04  2.75074911e-05  2.44256620e-04  6.59647693e+06  1.00000000e-06  1.50000000e-07 
 3.00000000e-05  1.65000000e+00  1.23750000e+00  6.27721727e-01  2.57788485e-04  7.68045267e-04  8.07023641e-04  3.25318951e-05  2.71793580e-04  5.92815016e+06  1.00000000e-06  1.50000000e-07 
 i-sweep         v(VG)           v(VD)           v(Vbias)        gmrp            Ipeak_unit      gmron_unit      Ibias_unit      gmbias_unit     Ron_Gm_unit     width           length         
 5.00000000e-06  4.12500000e-01  8.25000000e-01  4.79857379e-01  7.65938607e-05  2.12382421e-06  4.27535317e-05  6.59244269e-06  9.27883171e-05  4.18641312e+09  1.00000000e-06  1.50000000e-07 
 1.00000000e-05  4.12500000e-01  8.25000000e-01  5.27135345e-01  1.24528358e-04  2.12382421e-06  4.27535317e-05  1.20588267e-05  1.40365360e-04  2.76742230e+09  1.00000000e-06  1.50000000e-07 
 1.50000000e-05  4.12500000e-01  8.25000000e-01  5.60052322e-01  1.64284862e-04  2.12382421e-06  4.27535317e-05  1.73154486e-05  1.79783408e-04  2.16065672e+09  1.00000000e-06  1.50000000e-07 
 2.00000000e-05  4.12500000e-01  8.25000000e-01  5.86108523e-01  1.98752868e-04  2.12382421e-06  4.27535317e-05  2.24390420e-05  2.13848720e-04  1.81647207e+09  1.00000000e-06  1.50000000e-07 
 2.50000000e-05  4.12500000e-01  8.25000000e-01  6.08245468e-01  2.29661268e-04  2.12382421e-06  4.27535317e-05  2.75074911e-05  2.44256620e-04  1.59033654e+09  1.00000000e-06  1.50000000e-07 
 3.00000000e-05  4.12500000e-01  8.25000000e-01  6.27721727e-01  2.57788485e-04  2.12382421e-06  4.27535317e-05  3.25318951e-05  2.71793580e-04  1.42921046e+09  1.00000000e-06  1.50000000e-07 
 5.00000000e-06  8.25000000e-01  8.25000000e-01  4.79857096e-01  7.65936095e-05  1.13648288e-04  5.41299052e-04  6.59241645e-06  9.27880669e-05  7.82346105e+07  1.00000000e-06  1.50000000e-07 
 1.00000000e-05  8.25000000e-01  8.25000000e-01  5.27135345e-01  1.24528358e-04  1.13648288e-04  5.41299052e-04  1.20588268e-05  1.40365360e-04  5.17167359e+07  1.00000000e-06  1.50000000e-07 
 1.50000000e-05  8.25000000e-01  8.25000000e-01  5.60052322e-01  1.64284862e-04  1.13648288e-04  5.41299052e-04  1.73154486e-05  1.79783408e-04  4.03776876e+07  1.00000000e-06  1.50000000e-07 
 2.00000000e-05  8.25000000e-01  8.25000000e-01  5.86108523e-01  1.98752868e-04  1.13648288e-04  5.41299052e-04  2.24390420e-05  2.13848720e-04  3.39456709e+07  1.00000000e-06  1.50000000e-07 
 2.50000000e-05  8.25000000e-01  8.25000000e-01  6.08245468e-01  2.29661268e-04  1.13648288e-04  5.41299052e-04  2.75074911e-05  2.44256620e-04  2.97197197e+07  1.00000000e-06  1.50000000e-07 
 3.00000000e-05  8.25000000e-01  8.25000000e-01  6.27721727e-01  2.57788485e-04  1.13648288e-04  5.41299052e-04  3.25318951e-05  2.71793580e-04  2.67086451e+07  1.00000000e-06  1.50000000e-07 
 5.00000000e-06  1.23750000e+00  8.25000000e-01  4.79857096e-01  7.65936095e-05  3.99571387e-04  7.67671766e-04  6.59241645e-06  9.27880669e-05  2.22519175e+07  1.00000000e-06  1.50000000e-07 
 1.00000000e-05  1.23750000e+00  8.25000000e-01  5.27135345e-01  1.24528358e-04  3.99571387e-04  7.67671766e-04  1.20588268e-05  1.40365360e-04  1.47095580e+07  1.00000000e-06  1.50000000e-07 
 1.50000000e-05  1.23750000e+00  8.25000000e-01  5.60052322e-01  1.64284862e-04  3.99571387e-04  7.67671766e-04  1.73154486e-05  1.79783408e-04  1.14844436e+07  1.00000000e-06  1.50000000e-07 
 2.00000000e-05  1.23750000e+00  8.25000000e-01  5.86108523e-01  1.98752868e-04  3.99571387e-04  7.67671766e-04  2.24390420e-05  2.13848720e-04  9.65501409e+06  1.00000000e-06  1.50000000e-07 
 2.50000000e-05  1.23750000e+00  8.25000000e-01  6.08245468e-01  2.29661268e-04  3.99571387e-04  7.67671766e-04  2.75074911e-05  2.44256620e-04  8.45304586e+06  1.00000000e-06  1.50000000e-07 
 3.00000000e-05  1.23750000e+00  8.25000000e-01  6.27721727e-01  2.57788485e-04  3.99571387e-04  7.67671766e-04  3.25318951e-05  2.71793580e-04  7.59661949e+06  1.00000000e-06  1.50000000e-07 
 5.00000000e-06  1.65000000e+00  8.25000000e-01  4.79857096e-01  7.65936095e-05  7.08631790e-04  7.08086376e-04  6.59241645e-06  9.27880669e-05  1.25470373e+07  1.00000000e-06  1.50000000e-07 
 1.00000000e-05  1.65000000e+00  8.25000000e-01  5.27135345e-01  1.24528358e-04  7.08631790e-04  7.08086376e-04  1.20588268e-05  1.40365360e-04  8.29417841e+06  1.00000000e-06  1.50000000e-07 
 1.50000000e-05  1.65000000e+00  8.25000000e-01  5.60052322e-01  1.64284862e-04  7.08631790e-04  7.08086376e-04  1.73154486e-05  1.79783408e-04  6.47565510e+06  1.00000000e-06  1.50000000e-07 
 2.00000000e-05  1.65000000e+00  8.25000000e-01  5.86108523e-01  1.98752868e-04  7.08631790e-04  7.08086376e-04  2.24390420e-05  2.13848720e-04  5.44410712e+06  1.00000000e-06  1.50000000e-07 
 2.50000000e-05  1.65000000e+00  8.25000000e-01  6.08245468e-01  2.29661268e-04  7.08631790e-04  7.08086376e-04  2.75074911e-05  2.44256620e-04  4.76636147e+06  1.00000000e-06  1.50000000e-07 
 3.00000000e-05  1.65000000e+00  8.25000000e-01  6.27721727e-01  2.57788485e-04  7.08631790e-04  7.08086376e-04  3.25318951e-05  2.71793580e-04  4.28345416e+06  1.00000000e-06  1.50000000e-07 
 i-sweep         v(VG)           v(VD)           v(Vbias)        gmrp            Ipeak_unit      gmron_unit      Ibias_unit      gmbias_unit     Ron_Gm_unit     width           length         
 5.00000000e-06  4.12500000e-01  4.12500000e-01  4.79857379e-01  7.65938607e-05  1.35317694e-06  2.89712506e-05  6.59244269e-06  9.27883171e-05  3.28530783e+09  1.00000000e-06  1.50000000e-07 
 1.00000000e-05  4.12500000e-01  4.12500000e-01  5.27135345e-01  1.24528358e-04  1.35317694e-06  2.89712506e-05  1.20588267e-05  1.40365360e-04  2.17174796e+09  1.00000000e-06  1.50000000e-07 
