 i-sweep         v(VG)           v(VD)           v(Vbias)        gmrp            Ipeak_unit      gmron_unit      Ibias_unit      gmbias_unit     Ron_Gm_unit     width           length         
 5.00000000e-06  4.12500000e-01  1.65000000e+00  5.37691705e-01  7.83396501e-05  7.46094970e-07  2.06044098e-05  6.22396803e-06  9.10368741e-05  2.42925159e+10  1.00000000e-06  1.50000000e-07 
 1.00000000e-05  4.12500000e-01  1.65000000e+00  5.84397334e-01  1.26326496e-04  7.46094970e-07  2.06044098e-05  1.15393568e-05  1.38352978e-04  1.59845833e+10  1.00000000e-06  1.50000000e-07 
 1.50000000e-05  4.12500000e-01  1.65000000e+00  6.17107333e-01  1.65705965e-04  7.46094970e-07  2.06044098e-05  1.66880469e-05  1.77084673e-04  1.24884592e+10  1.00000000e-06  1.50000000e-07 
 2.00000000e-05  4.12500000e-01  1.65000000e+00  6.43136059e-01  1.99466932e-04  7.46094970e-07  2.06044098e-05  2.17241280e-05  2.10132153e-04  1.05243994e+10  1.00000000e-06  1.50000000e-07 
 2.50000000e-05  4.12500000e-01  1.65000000e+00  6.65348989e-01  2.29394510e-04  7.46094970e-07  2.06044098e-05  2.67142612e-05  2.39268005e-04  9.24283506e+09  1.00000000e-06  1.50000000e-07 
 3.00000000e-05  4.12500000e-01  1.65000000e+00  6.84978035e-01  2.56325068e-04  7.46094970e-07  2.06044098e-05  3.16665759e-05  2.65347915e-04  8.33439641e+09  1.00000000e-06  1.50000000e-07 
 5.00000000e-06  8.25000000e-01  1.65000000e+00  5.37691705e-01  7.83396501e-05  9.50347958e-05  4.82612741e-04  6.22396803e-06  9.10368742e-05  1.90714609e+08  1.00000000e-06  1.50000000e-07 
 1.00000000e-05  8.25000000e-01  1.65000000e+00  5.84397334e-01  1.26326496e-04  9.50347958e-05  4.82612741e-04  1.15393568e-05  1.38352978e-04  1.25491060e+08  1.00000000e-06  1.50000000e-07 
 1.50000000e-05  8.25000000e-01  1.65000000e+00  6.17107333e-01  1.65705965e-04  9.50347958e-05  4.82612741e-04  1.66880469e-05  1.77084673e-04  9.80438426e+07  1.00000000e-06  1.50000000e-07 
 2.00000000e-05  8.25000000e-01  1.65000000e+00  6.43136059e-01  1.99466932e-04  9.50347958e-05  4.82612741e-04  2.17241280e-05  2.10132153e-04  8.26244892e+07  1.00000000e-06  1.50000000e-07 
 2.50000000e-05  8.25000000e-01  1.65000000e+00  6.65348989e-01  2.29394510e-04  9.50347958e-05  4.82612741e-04  2.67142612e-05  2.39268005e-04  7.25632405e+07  1.00000000e-06  1.50000000e-07 
 3.00000000e-05  8.25000000e-01  1.65000000e+00  6.84978035e-01  2.56325068e-04  9.50347958e-05  4.82612741e-04  3.16665759e-05  2.65347915e-04  6.54313106e+07  1.00000000e-06  1.50000000e-07 
 5.00000000e-06  1.23750000e+00  1.65000000e+00  5.37691705e-01  7.83396501e-05  3.52228885e-04  6.98465250e-04  6.22396803e-06  9.10368742e-05  5.14566653e+07  1.00000000e-06  1.50000000e-07 
 1.00000000e-05  1.23750000e+00  1.65000000e+00  5.84397334e-01  1.26326496e-04  3.52228885e-04  6.98465250e-04  1.15393568e-05  1.38352978e-04  3.38587144e+07  1.00000000e-06  1.50000000e-07 
 1.50000000e-05  1.23750000e+00  1.65000000e+00  6.17107333e-01  1.65705965e-04  3.52228885e-04  6.98465250e-04  1.66880469e-05  1.77084673e-04  2.64531870e+07  1.00000000e-06  1.50000000e-07 
 2.00000000e-05  1.23750000e+00  1.65000000e+00  6.43136059e-01  1.99466932e-04  3.52228885e-04  6.98465250e-04  2.17241280e-05  2.10132153e-04  2.22928947e+07  1.00000000e-06  1.50000000e-07 
 2.50000000e-05  1.23750000e+00  1.65000000e+00  6.65348989e-01  2.29394510e-04  3.52228885e-04  6.98465250e-04  2.67142612e-05  2.39268005e-04  1.95782715e+07  1.00000000e-06  1.50000000e-07 
 3.00000000e-05  1.23750000e+00  1.65000000e+00  6.84978035e-01  2.56325068e-04  3.52228885e-04  6.98465250e-04  3.16665759e-05  2.65347915e-04  1.76540071e+07  1.00000000e-06  1.50000000e-07 
 5.00000000e-06  1.65000000e+00  1.65000000e+00  5.37691705e-01  7.83396501e-05  6.42780520e-04  6.95765826e-04  6.22396803e-06  9.10368742e-05  2.81970647e+07  1.00000000e-06  1.50000000e-07 
 1.00000000e-05  1.65000000e+00  1.65000000e+00  5.84397334e-01  1.26326496e-04  6.42780520e-04  6.95765826e-04  1.15393568e-05  1.38352978e-04  1.85537938e+07  1.00000000e-06  1.50000000e-07 
 1.50000000e-05  1.65000000e+00  1.65000000e+00  6.17107333e-01  1.65705965e-04  6.42780520e-04  6.95765826e-04  1.66880469e-05  1.77084673e-04  1.44957358e+07  1.00000000e-06  1.50000000e-07 
 2.00000000e-05  1.65000000e+00  1.65000000e+00  6.43136059e-01  1.99466932e-04  6.42780520e-04  6.95765826e-04  2.17241280e-05  2.10132153e-04  1.22159916e+07  1.00000000e-06  1.50000000e-07 
 2.50000000e-05  1.65000000e+00  1.65000000e+00  6.65348989e-01  2.29394510e-04  6.42780520e-04  6.95765826e-04  2.67142612e-05  2.39268005e-04  1.07284408e+07  1.00000000e-06  1.50000000e-07 
 3.00000000e-05  1.65000000e+00  1.65000000e+00  6.84978035e-01  2.56325068e-04  6.42780520e-04  6.95765826e-04  3.16665759e-05  2.65347915e-04  9.67398831e+06  1.00000000e-06  1.50000000e-07 
 i-sweep         v(VG)           v(VD)           v(Vbias)        gmrp            Ipeak_unit      gmron_unit      Ibias_unit      gmbias_unit     Ron_Gm_unit     width           length         
 5.00000000e-06  4.12500000e-01  1.60000000e+00  5.37691705e-01  7.83396501e-05  7.29595913e-07  2.01566562e-05  6.22396803e-06  9.10368741e-05  2.40890822e+10  1.00000000e-06  1.50000000e-07 
 1.00000000e-05  4.12500000e-01  1.60000000e+00  5.84397334e-01  1.26326496e-04  7.29595913e-07  2.01566562e-05  1.15393568e-05  1.38352978e-04  1.58507231e+10  1.00000000e-06  1.50000000e-07 
 1.50000000e-05  4.12500000e-01  1.60000000e+00  6.17107333e-01  1.65705965e-04  7.29595913e-07  2.01566562e-05  1.66880469e-05  1.77084673e-04  1.23838766e+10  1.00000000e-06  1.50000000e-07 
 2.00000000e-05  4.12500000e-01  1.60000000e+00  6.43136059e-01  1.99466932e-04  7.29595913e-07  2.01566562e-05  2.17241280e-05  2.10132153e-04  1.04362645e+10  1.00000000e-06  1.50000000e-07 
 2.50000000e-05  4.12500000e-01  1.60000000e+00  6.65348989e-01  2.29394510e-04  7.29595913e-07  2.01566562e-05  2.67142612e-05  2.39268005e-04  9.16543245e+09  1.00000000e-06  1.50000000e-07 
 3.00000000e-05  4.12500000e-01  1.60000000e+00  6.84978035e-01  2.56325068e-04  7.29595913e-07  2.01566562e-05  3.16665759e-05  2.65347915e-04  8.26460137e+09  1.00000000e-06  1.50000000e-07 
 5.00000000e-06  8.25000000e-01  1.60000000e+00  5.37691705e-01  7.83396501e-05  9.43580773e-05  4.80599399e-04  6.22396803e-06  9.10368742e-05  1.86261700e+08  1.00000000e-06  1.50000000e-07 
 1.00000000e-05  8.25000000e-01  1.60000000e+00  5.84397334e-01  1.26326496e-04  9.43580773e-05  4.80599399e-04  1.15393568e-05  1.38352978e-04  1.22561026e+08  1.00000000e-06  1.50000000e-07 
 1.50000000e-05  8.25000000e-01  1.60000000e+00  6.17107333e-01  1.65705965e-04  9.43580773e-05  4.80599399e-04  1.66880469e-05  1.77084673e-04  9.57546616e+07  1.00000000e-06  1.50000000e-07 
 2.00000000e-05  8.25000000e-01  1.60000000e+00  6.43136059e-01  1.99466932e-04  9.43580773e-05  4.80599399e-04  2.17241280e-05  2.10132153e-04  8.06953276e+07  1.00000000e-06  1.50000000e-07 
 2.50000000e-05  8.25000000e-01  1.60000000e+00  6.65348989e-01  2.29394510e-04  9.43580773e-05  4.80599399e-04  2.67142612e-05  2.39268005e-04  7.08689944e+07  1.00000000e-06  1.50000000e-07 
 3.00000000e-05  8.25000000e-01  1.60000000e+00  6.84978035e-01  2.56325068e-04  9.43580773e-05  4.80599399e-04  3.16665759e-05  2.65347915e-04  6.39035847e+07  1.00000000e-06  1.50000000e-07 
 5.00000000e-06  1.23750000e+00  1.60000000e+00  5.37691705e-01  7.83396501e-05  3.50850882e-04  6.96933676e-04  6.22396803e-06  9.10368742e-05  5.00933496e+07  1.00000000e-06  1.50000000e-07 
 1.00000000e-05  1.23750000e+00  1.60000000e+00  5.84397334e-01  1.26326496e-04  3.50850882e-04  6.96933676e-04  1.15393568e-05  1.38352978e-04  3.29616466e+07  1.00000000e-06  1.50000000e-07 
 1.50000000e-05  1.23750000e+00  1.60000000e+00  6.17107333e-01  1.65705965e-04  3.50850882e-04  6.96933676e-04  1.66880469e-05  1.77084673e-04  2.57523245e+07  1.00000000e-06  1.50000000e-07 
 2.00000000e-05  1.23750000e+00  1.60000000e+00  6.43136059e-01  1.99466932e-04  3.50850882e-04  6.96933676e-04  2.17241280e-05  2.10132153e-04  2.17022569e+07  1.00000000e-06  1.50000000e-07 
 2.50000000e-05  1.23750000e+00  1.60000000e+00  6.65348989e-01  2.29394510e-04  3.50850882e-04  6.96933676e-04  2.67142612e-05  2.39268005e-04  1.90595561e+07  1.00000000e-06  1.50000000e-07 
 3.00000000e-05  1.23750000e+00  1.60000000e+00  6.84978035e-01  2.56325068e-04  3.50850882e-04  6.96933676e-04  3.16665759e-05  2.65347915e-04  1.71862740e+07  1.00000000e-06  1.50000000e-07 
 5.00000000e-06  1.65000000e+00  1.60000000e+00  5.37691705e-01  7.83396501e-05  6.40724279e-04  6.93873875e-04  6.22396803e-06  9.10368742e-05  2.74303573e+07  1.00000000e-06  1.50000000e-07 
 1.00000000e-05  1.65000000e+00  1.60000000e+00  5.84397334e-01  1.26326496e-04  6.40724279e-04  6.93873875e-04  1.15393568e-05  1.38352978e-04  1.80492969e+07  1.00000000e-06  1.50000000e-07 
 1.50000000e-05  1.65000000e+00  1.60000000e+00  6.17107333e-01  1.65705965e-04  6.40724279e-04  6.93873875e-04  1.66880469e-05  1.77084673e-04  1.41015817e+07  1.00000000e-06  1.50000000e-07 
 2.00000000e-05  1.65000000e+00  1.60000000e+00  6.43136059e-01  1.99466932e-04  6.40724279e-04  6.93873875e-04  2.17241280e-05  2.10132153e-04  1.18838262e+07  1.00000000e-06  1.50000000e-07 
 2.50000000e-05  1.65000000e+00  1.60000000e+00  6.65348989e-01  2.29394510e-04  6.40724279e-04  6.93873875e-04  2.67142612e-05  2.39268005e-04  1.04367234e+07  1.00000000e-06  1.50000000e-07 
 3.00000000e-05  1.65000000e+00  1.60000000e+00  6.84978035e-01  2.56325068e-04  6.40724279e-04  6.93873875e-04  3.16665759e-05  2.65347915e-04  9.41094255e+06  1.00000000e-06  1.50000000e-07 
 i-sweep         v(VG)           v(VD)           v(Vbias)        gmrp            Ipeak_unit      gmron_unit      Ibias_unit      gmbias_unit     Ron_Gm_unit     width           length         
 5.00000000e-06  4.12500000e-01  1.23750000e+00  5.37691705e-01  7.83396501e-05  6.04006983e-07  1.67530577e-05  6.22396803e-06  9.10368741e-05  2.25053572e+10  1.00000000e-06  1.50000000e-07 
 1.00000000e-05  4.12500000e-01  1.23750000e+00  5.84397334e-01  1.26326496e-04  6.04006983e-07  1.67530577e-05  1.15393568e-05  1.38352978e-04  1.48086250e+10  1.00000000e-06  1.50000000e-07 
 1.50000000e-05  4.12500000e-01  1.23750000e+00  6.17107333e-01  1.65705965e-04  6.04006983e-07  1.67530577e-05  1.66880469e-05  1.77084673e-04  1.15697047e+10  1.00000000e-06  1.50000000e-07 
 2.00000000e-05  4.12500000e-01  1.23750000e+00  6.43136059e-01  1.99466932e-04  6.04006983e-07  1.67530577e-05  2.17241280e-05  2.10132153e-04  9.75013743e+09  1.00000000e-06  1.50000000e-07 
 2.50000000e-05  4.12500000e-01  1.23750000e+00  6.65348989e-01  2.29394510e-04  6.04006983e-07  1.67530577e-05  2.67142612e-05  2.39268005e-04  8.56285557e+09  1.00000000e-06  1.50000000e-07 
 3.00000000e-05  4.12500000e-01  1.23750000e+00  6.84978035e-01  2.56325068e-04  6.04006983e-07  1.67530577e-05  3.16665759e-05  2.65347915e-04  7.72124919e+09  1.00000000e-06  1.50000000e-07 
 5.00000000e-06  8.25000000e-01  1.23750000e+00  5.37691705e-01  7.83396501e-05  8.89723475e-05  4.64187872e-04  6.22396803e-06  9.10368742e-05  1.52782222e+08  1.00000000e-06  1.50000000e-07 
 1.00000000e-05  8.25000000e-01  1.23750000e+00  5.84397334e-01  1.26326496e-04  8.89723475e-05  4.64187872e-04  1.15393568e-05  1.38352978e-04  1.00531380e+08  1.00000000e-06  1.50000000e-07 
 1.50000000e-05  8.25000000e-01  1.23750000e+00  6.17107333e-01  1.65705965e-04  8.89723475e-05  4.64187872e-04  1.66880469e-05  1.77084673e-04  7.85433073e+07  1.00000000e-06  1.50000000e-07 
 2.00000000e-05  8.25000000e-01  1.23750000e+00  6.43136059e-01  1.99466932e-04  8.89723475e-05  4.64187872e-04  2.17241280e-05  2.10132153e-04  6.61908026e+07  1.00000000e-06  1.50000000e-07 
 2.50000000e-05  8.25000000e-01  1.23750000e+00  6.65348989e-01  2.29394510e-04  8.89723475e-05  4.64187872e-04  2.67142612e-05  2.39268005e-04  5.81306968e+07  1.00000000e-06  1.50000000e-07 
 3.00000000e-05  8.25000000e-01  1.23750000e+00  6.84978035e-01  2.56325068e-04  8.89723475e-05  4.64187872e-04  3.16665759e-05  2.65347915e-04  5.24172798e+07  1.00000000e-06  1.50000000e-07 
 5.00000000e-06  1.23750000e+00  1.23750000e+00  5.37691705e-01  7.83396501e-05  3.39391921e-04  6.82807733e-04  6.22396803e-06  9.10368742e-05  4.00521995e+07  1.00000000e-06  1.50000000e-07 
 1.00000000e-05  1.23750000e+00  1.23750000e+00  5.84397334e-01  1.26326496e-04  3.39391921e-04  6.82807733e-04  1.15393568e-05  1.38352978e-04  2.63545252e+07  1.00000000e-06  1.50000000e-07 
 1.50000000e-05  1.23750000e+00  1.23750000e+00  6.17107333e-01  1.65705965e-04  3.39391921e-04  6.82807733e-04  1.66880469e-05  1.77084673e-04  2.05903028e+07  1.00000000e-06  1.50000000e-07 
 2.00000000e-05  1.23750000e+00  1.23750000e+00  6.43136059e-01  1.99466932e-04  3.39391921e-04  6.82807733e-04  2.17241280e-05  2.10132153e-04  1.73520662e+07  1.00000000e-06  1.50000000e-07 
 2.50000000e-05  1.23750000e+00  1.23750000e+00  6.65348989e-01  2.29394510e-04  3.39391921e-04  6.82807733e-04  2.67142612e-05  2.39268005e-04  1.52390916e+07  1.00000000e-06  1.50000000e-07 
 3.00000000e-05  1.23750000e+00  1.23750000e+00  6.84978035e-01  2.56325068e-04  3.39391921e-04  6.82807733e-04  3.16665759e-05  2.65347915e-04  1.37413066e+07  1.00000000e-06  1.50000000e-07 
 5.00000000e-06  1.65000000e+00  1.23750000e+00  5.37691705e-01  7.83396501e-05  6.22527256e-04  6.74153700e-04  6.22396803e-06  9.10368742e-05  2.18358197e+07  1.00000000e-06  1.50000000e-07 
 1.00000000e-05  1.65000000e+00  1.23750000e+00  5.84397334e-01  1.26326496e-04  6.22527256e-04  6.74153700e-04  1.15393568e-05  1.38352978e-04  1.43680663e+07  1.00000000e-06  1.50000000e-07 
 1.50000000e-05  1.65000000e+00  1.23750000e+00  6.17107333e-01  1.65705965e-04  6.22527256e-04  6.74153700e-04  1.66880469e-05  1.77084673e-04  1.12255044e+07  1.00000000e-06  1.50000000e-07 
 2.00000000e-05  1.65000000e+00  1.23750000e+00  6.43136059e-01  1.99466932e-04  6.22527256e-04  6.74153700e-04  2.17241280e-05  2.10132153e-04  9.46006948e+06  1.00000000e-06  1.50000000e-07 
 2.50000000e-05  1.65000000e+00  1.23750000e+00  6.65348989e-01  2.29394510e-04  6.22527256e-04  6.74153700e-04  2.67142612e-05  2.39268005e-04  8.30810942e+06  1.00000000e-06  1.50000000e-07 
 3.00000000e-05  1.65000000e+00  1.23750000e+00  6.84978035e-01  2.56325068e-04  6.22527256e-04  6.74153700e-04  3.16665759e-05  2.65347915e-04  7.49154095e+06  1.00000000e-06  1.50000000e-07 
 i-sweep         v(VG)           v(VD)           v(Vbias)        gmrp            Ipeak_unit      gmron_unit      Ibias_unit      gmbias_unit     Ron_Gm_unit     width           length         
 5.00000000e-06  4.12500000e-01  8.25000000e-01  5.37691705e-01  7.83396501e-05  4.45701860e-07  1.24504303e-05  6.22396803e-06  9.10368741e-05  2.03325648e+10  1.00000000e-06  1.50000000e-07 
 1.00000000e-05  4.12500000e-01  8.25000000e-01  5.84397334e-01  1.26326496e-04  4.45701860e-07  1.24504303e-05  1.15393568e-05  1.38352978e-04  1.33789179e+10  1.00000000e-06  1.50000000e-07 
 1.50000000e-05  4.12500000e-01  8.25000000e-01  6.17107333e-01  1.65705965e-04  4.45701860e-07  1.24504303e-05  1.66880469e-05  1.77084673e-04  1.04527010e+10  1.00000000e-06  1.50000000e-07 
 2.00000000e-05  4.12500000e-01  8.25000000e-01  6.43136059e-01  1.99466932e-04  4.45701860e-07  1.24504303e-05  2.17241280e-05  2.10132153e-04  8.80880490e+09  1.00000000e-06  1.50000000e-07 
 2.50000000e-05  4.12500000e-01  8.25000000e-01  6.65348989e-01  2.29394510e-04  4.45701860e-07  1.24504303e-05  2.67142612e-05  2.39268005e-04  7.73614984e+09  1.00000000e-06  1.50000000e-07 
 3.00000000e-05  4.12500000e-01  8.25000000e-01  6.84978035e-01  2.56325068e-04  4.45701860e-07  1.24504303e-05  3.16665759e-05  2.65347915e-04  6.97579682e+09  1.00000000e-06  1.50000000e-07 
 5.00000000e-06  8.25000000e-01  8.25000000e-01  5.37691705e-01  7.83396501e-05  8.14150686e-05  4.39263103e-04  6.22396803e-06  9.10368742e-05  1.11309394e+08  1.00000000e-06  1.50000000e-07 
 1.00000000e-05  8.25000000e-01  8.25000000e-01  5.84397334e-01  1.26326496e-04  8.14150686e-05  4.39263103e-04  1.15393568e-05  1.38352978e-04  7.32420756e+07  1.00000000e-06  1.50000000e-07 
 1.50000000e-05  8.25000000e-01  8.25000000e-01  6.17107333e-01  1.65705965e-04  8.14150686e-05  4.39263103e-04  1.66880469e-05  1.77084673e-04  5.72226783e+07  1.00000000e-06  1.50000000e-07 
 2.00000000e-05  8.25000000e-01  8.25000000e-01  6.43136059e-01  1.99466932e-04  8.14150686e-05  4.39263103e-04  2.17241280e-05  2.10132153e-04  4.82232687e+07  1.00000000e-06  1.50000000e-07 
 2.50000000e-05  8.25000000e-01  8.25000000e-01  6.65348989e-01  2.29394510e-04  8.14150686e-05  4.39263103e-04  2.67142612e-05  2.39268005e-04  4.23510835e+07  1.00000000e-06  1.50000000e-07 
 3.00000000e-05  8.25000000e-01  8.25000000e-01  6.84978035e-01  2.56325068e-04  8.14150686e-05  4.39263103e-04  3.16665759e-05  2.65347915e-04  3.81885770e+07  1.00000000e-06  1.50000000e-07 
 5.00000000e-06  1.23750000e+00  8.25000000e-01  5.37691705e-01  7.83396501e-05  3.20767813e-04  6.51362524e-04  6.22396803e-06  9.10368742e-05  2.82517808e+07  1.00000000e-06  1.50000000e-07 
 1.00000000e-05  1.23750000e+00  8.25000000e-01  5.84397334e-01  1.26326496e-04  3.20767813e-04  6.51362524e-04  1.15393568e-05  1.38352978e-04  1.85897973e+07  1.00000000e-06  1.50000000e-07 
 1.50000000e-05  1.23750000e+00  8.25000000e-01  6.17107333e-01  1.65705965e-04  3.20767813e-04  6.51362524e-04  1.66880469e-05  1.77084673e-04  1.45238646e+07  1.00000000e-06  1.50000000e-07 
 2.00000000e-05  1.23750000e+00  8.25000000e-01  6.43136059e-01  1.99466932e-04  3.20767813e-04  6.51362524e-04  2.17241280e-05  2.10132153e-04  1.22396966e+07  1.00000000e-06  1.50000000e-07 
 2.50000000e-05  1.23750000e+00  8.25000000e-01  6.65348989e-01  2.29394510e-04  3.20767813e-04  6.51362524e-04  2.67142612e-05  2.39268005e-04  1.07492592e+07  1.00000000e-06  1.50000000e-07 
 3.00000000e-05  1.23750000e+00  8.25000000e-01  6.84978035e-01  2.56325068e-04  3.20767813e-04  6.51362524e-04  3.16665759e-05  2.65347915e-04  9.69276059e+06  1.00000000e-06  1.50000000e-07 
 5.00000000e-06  1.65000000e+00  8.25000000e-01  5.37691705e-01  7.83396501e-05  5.86737314e-04  6.20479884e-04  6.22396803e-06  9.10368742e-05  1.54451775e+07  1.00000000e-06  1.50000000e-07 
 1.00000000e-05  1.65000000e+00  8.25000000e-01  5.84397334e-01  1.26326496e-04  5.86737314e-04  6.20479884e-04  1.15393568e-05  1.38352978e-04  1.01629954e+07  1.00000000e-06  1.50000000e-07 
 1.50000000e-05  1.65000000e+00  8.25000000e-01  6.17107333e-01  1.65705965e-04  5.86737314e-04  6.20479884e-04  1.66880469e-05  1.77084673e-04  7.94016022e+06  1.00000000e-06  1.50000000e-07 
 2.00000000e-05  1.65000000e+00  8.25000000e-01  6.43136059e-01  1.99466932e-04  5.86737314e-04  6.20479884e-04  2.17241280e-05  2.10132153e-04  6.69141136e+06  1.00000000e-06  1.50000000e-07 
 2.50000000e-05  1.65000000e+00  8.25000000e-01  6.65348989e-01  2.29394510e-04  5.86737314e-04  6.20479884e-04  2.67142612e-05  2.39268005e-04  5.87659296e+06  1.00000000e-06  1.50000000e-07 
 3.00000000e-05  1.65000000e+00  8.25000000e-01  6.84978035e-01  2.56325068e-04  5.86737314e-04  6.20479884e-04  3.16665759e-05  2.65347915e-04  5.29900783e+06  1.00000000e-06  1.50000000e-07 
 i-sweep         v(VG)           v(VD)           v(Vbias)        gmrp            Ipeak_unit      gmron_unit      Ibias_unit      gmbias_unit     Ron_Gm_unit     width           length         
 5.00000000e-06  4.12500000e-01  4.12500000e-01  5.37691705e-01  7.83396501e-05  2.68204577e-07  7.60045686e-06  6.22396803e-06  9.10368741e-05  1.68943089e+10  1.00000000e-06  1.50000000e-07 
 1.00000000e-05  4.12500000e-01  4.12500000e-01  5.84397334e-01  1.26326496e-04  2.68204577e-07  7.60045686e-06  1.15393568e-05  1.38352978e-04  1.11165303e+10  1.00000000e-06  1.50000000e-07 
