i-sweep,v(VG),v(VD),v(Vbias),gmrp,Ipeak_unit,gmron_unit,Ibias_unit,gmbias_unit,Ron_Gm_unit,width,length,corner
5e-06,0.4125,1.65,0.525154251,3.80199909e-05,2.15592039e-06,2.32204804e-05,5.27425508e-06,3.93428941e-05,19452925300.0,1e-06,2e-06,ss
1e-05,0.4125,1.65,0.629168673,5.5550408e-05,2.15592039e-06,2.32204804e-05,1.02637968e-05,5.65411438e-05,13535884300.0,1e-06,2e-06,ss
1.5e-05,0.4125,1.65,0.707814114,6.83666097e-05,2.15592039e-06,2.32204804e-05,1.52057196e-05,6.90165218e-05,11089147400.0,1e-06,2e-06,ss
2e-05,0.4125,1.65,0.77401582,7.85590944e-05,2.15592039e-06,2.32204804e-05,2.01044871e-05,7.88640373e-05,9704478850.0,1e-06,2e-06,ss
2.5e-05,0.4125,1.65,0.832805709,8.70359529e-05,2.15592039e-06,2.32204804e-05,2.49827131e-05,8.69858475e-05,8798378180.0,1e-06,2e-06,ss
3e-05,0.4125,1.65,0.886516629,9.42558894e-05,2.15592039e-06,2.32204804e-05,2.98412087e-05,9.38314722e-05,8156478460.0,1e-06,2e-06,ss
5e-06,0.825,1.65,0.52515425,3.80199907e-05,2.56461344e-05,8.92228372e-05,5.27425503e-06,3.93428939e-05,1635293570.0,1e-06,2e-06,ss
1e-05,0.825,1.65,0.629168673,5.5550408e-05,2.56461344e-05,8.92228372e-05,1.02637968e-05,5.65411438e-05,1137882560.0,1e-06,2e-06,ss
1.5e-05,0.825,1.65,0.707814114,6.83666097e-05,2.56461344e-05,8.92228372e-05,1.52057196e-05,6.90165218e-05,932199705.0,1e-06,2e-06,ss
2e-05,0.825,1.65,0.77401582,7.85590944e-05,2.56461344e-05,8.92228372e-05,2.01044871e-05,7.88640373e-05,815798727.0,1e-06,2e-06,ss
2.5e-05,0.825,1.65,0.832805709,8.70359529e-05,2.56461344e-05,8.92228372e-05,2.49827131e-05,8.69858475e-05,739628148.0,1e-06,2e-06,ss
3e-05,0.825,1.65,0.886516629,9.42558894e-05,2.56461344e-05,8.92228372e-05,2.98412087e-05,9.38314722e-05,685667396.0,1e-06,2e-06,ss
5e-06,1.2375,1.65,0.52515425,3.80199907e-05,7.20335767e-05,0.000130502142,5.27425503e-06,3.93428939e-05,582214024.0,1e-06,2e-06,ss
1e-05,1.2375,1.65,0.629168673,5.5550408e-05,7.20335767e-05,0.000130502142,1.02637968e-05,5.65411438e-05,405120644.0,1e-06,2e-06,ss
1.5e-05,1.2375,1.65,0.707814114,6.83666097e-05,7.20335767e-05,0.000130502142,1.52057196e-05,6.90165218e-05,331891321.0,1e-06,2e-06,ss
2e-05,1.2375,1.65,0.77401582,7.85590944e-05,7.20335767e-05,0.000130502142,2.01044871e-05,7.88640373e-05,290449049.0,1e-06,2e-06,ss
2.5e-05,1.2375,1.65,0.832805709,8.70359529e-05,7.20335767e-05,0.000130502142,2.49827131e-05,8.69858475e-05,263330016.0,1e-06,2e-06,ss
3e-05,1.2375,1.65,0.886516629,9.42558894e-05,7.20335767e-05,0.000130502142,2.98412087e-05,9.38314722e-05,244118355.0,1e-06,2e-06,ss
5e-06,1.65,1.65,0.52515425,3.80199907e-05,0.000129674188,0.000145469572,5.27425503e-06,3.93428939e-05,323417938.0,1e-06,2e-06,ss
1e-05,1.65,1.65,0.629168673,5.5550408e-05,0.000129674188,0.000145469572,1.02637968e-05,5.65411438e-05,225043159.0,1e-06,2e-06,ss
1.5e-05,1.65,1.65,0.707814114,6.83666097e-05,0.000129674188,0.000145469572,1.52057196e-05,6.90165218e-05,184364516.0,1e-06,2e-06,ss
2e-05,1.65,1.65,0.77401582,7.85590944e-05,0.000129674188,0.000145469572,2.01044871e-05,7.88640373e-05,161343472.0,1e-06,2e-06,ss
2.5e-05,1.65,1.65,0.832805709,8.70359529e-05,0.000129674188,0.000145469572,2.49827131e-05,8.69858475e-05,146278941.0,1e-06,2e-06,ss
3e-05,1.65,1.65,0.886516629,9.42558894e-05,0.000129674188,0.000145469572,2.98412087e-05,9.38314722e-05,135606927.0,1e-06,2e-06,ss
5e-06,0.4125,1.6,0.525154251,3.80199909e-05,2.14177499e-06,2.31271597e-05,5.27425508e-06,3.93428941e-05,18988026800.0,1e-06,2e-06,ss
1e-05,0.4125,1.6,0.629168673,5.5550408e-05,2.14177499e-06,2.31271597e-05,1.02637968e-05,5.65411438e-05,13212395000.0,1e-06,2e-06,ss
1.5e-05,0.4125,1.6,0.707814114,6.83666097e-05,2.14177499e-06,2.31271597e-05,1.52057196e-05,6.90165218e-05,10824131800.0,1e-06,2e-06,ss
2e-05,0.4125,1.6,0.77401582,7.85590944e-05,2.14177499e-06,2.31271597e-05,2.01044871e-05,7.88640373e-05,9472554940.0,1e-06,2e-06,ss
2.5e-05,0.4125,1.6,0.832805709,8.70359529e-05,2.14177499e-06,2.31271597e-05,2.49827131e-05,8.69858475e-05,8588108850.0,1e-06,2e-06,ss
3e-05,0.4125,1.6,0.886516629,9.42558894e-05,2.14177499e-06,2.31271597e-05,2.98412087e-05,9.38314722e-05,7961549660.0,1e-06,2e-06,ss
5e-06,0.825,1.6,0.52515425,3.80199907e-05,2.55846373e-05,8.90866248e-05,5.27425503e-06,3.93428939e-05,1589550820.0,1e-06,2e-06,ss
1e-05,0.825,1.6,0.629168673,5.5550408e-05,2.55846373e-05,8.90866248e-05,1.02637968e-05,5.65411438e-05,1106053490.0,1e-06,2e-06,ss
1.5e-05,0.825,1.6,0.707814114,6.83666097e-05,2.55846373e-05,8.90866248e-05,1.52057196e-05,6.90165218e-05,906124034.0,1e-06,2e-06,ss
2e-05,0.825,1.6,0.77401582,7.85590944e-05,2.55846373e-05,8.90866248e-05,2.01044871e-05,7.88640373e-05,792979047.0,1e-06,2e-06,ss
2.5e-05,0.825,1.6,0.832805709,8.70359529e-05,2.55846373e-05,8.90866248e-05,2.49827131e-05,8.69858475e-05,718939126.0,1e-06,2e-06,ss
3e-05,0.825,1.6,0.886516629,9.42558894e-05,2.55846373e-05,8.90866248e-05,2.98412087e-05,9.38314722e-05,666487775.0,1e-06,2e-06,ss
5e-06,1.2375,1.6,0.52515425,3.80199907e-05,7.19070174e-05,0.000130319689,5.27425503e-06,3.93428939e-05,565564844.0,1e-06,2e-06,ss
1e-05,1.2375,1.6,0.629168673,5.5550408e-05,7.19070174e-05,0.000130319689,1.02637968e-05,5.65411438e-05,393535684.0,1e-06,2e-06,ss
1.5e-05,1.2375,1.6,0.707814114,6.83666097e-05,7.19070174e-05,0.000130319689,1.52057196e-05,6.90165218e-05,322400450.0,1e-06,2e-06,ss
2e-05,1.2375,1.6,0.77401582,7.85590944e-05,7.19070174e-05,0.000130319689,2.01044871e-05,7.88640373e-05,282143274.0,1e-06,2e-06,ss
2.5e-05,1.2375,1.6,0.832805709,8.70359529e-05,7.19070174e-05,0.000130319689,2.49827131e-05,8.69858475e-05,255799746.0,1e-06,2e-06,ss
3e-05,1.2375,1.6,0.886516629,9.42558894e-05,7.19070174e-05,0.000130319689,2.98412087e-05,9.38314722e-05,237137467.0,1e-06,2e-06,ss
5e-06,1.65,1.6,0.52515425,3.80199907e-05,0.000129447051,0.000145115346,5.27425503e-06,3.93428939e-05,314167692.0,1e-06,2e-06,ss
1e-05,1.65,1.6,0.629168673,5.5550408e-05,0.000129447051,0.000145115346,1.02637968e-05,5.65411438e-05,218606582.0,1e-06,2e-06,ss
1.5e-05,1.65,1.6,0.707814114,6.83666097e-05,0.000129447051,0.000145115346,1.52057196e-05,6.90165218e-05,179091409.0,1e-06,2e-06,ss
2e-05,1.65,1.6,0.77401582,7.85590944e-05,0.000129447051,0.000145115346,2.01044871e-05,7.88640373e-05,156728803.0,1e-06,2e-06,ss
2.5e-05,1.65,1.6,0.832805709,8.70359529e-05,0.000129447051,0.000145115346,2.49827131e-05,8.69858475e-05,142095140.0,1e-06,2e-06,ss
3e-05,1.65,1.6,0.886516629,9.42558894e-05,0.000129447051,0.000145115346,2.98412087e-05,9.38314722e-05,131728362.0,1e-06,2e-06,ss
5e-06,0.4125,1.2375,0.525154251,3.80199909e-05,2.02963017e-06,2.23810591e-05,5.27425508e-06,3.93428941e-05,15497512400.0,1e-06,2e-06,ss
1e-05,0.4125,1.2375,0.629168673,5.5550408e-05,2.02963017e-06,2.23810591e-05,1.02637968e-05,5.65411438e-05,10783598500.0,1e-06,2e-06,ss
1.5e-05,0.4125,1.2375,0.707814114,6.83666097e-05,2.02963017e-06,2.23810591e-05,1.52057196e-05,6.90165218e-05,8834362780.0,1e-06,2e-06,ss
2e-05,0.4125,1.2375,0.77401582,7.85590944e-05,2.02963017e-06,2.23810591e-05,2.01044871e-05,7.88640373e-05,7731242430.0,1e-06,2e-06,ss
2.5e-05,0.4125,1.2375,0.832805709,8.70359529e-05,2.02963017e-06,2.23810591e-05,2.49827131e-05,8.69858475e-05,7009381510.0,1e-06,2e-06,ss
3e-05,0.4125,1.2375,0.886516629,9.42558894e-05,2.02963017e-06,2.23810591e-05,2.98412087e-05,9.38314722e-05,6498000900.0,1e-06,2e-06,ss
5e-06,0.825,1.2375,0.52515425,3.80199907e-05,2.5079062e-05,8.79227733e-05,5.27425503e-06,3.93428939e-05,1254202370.0,1e-06,2e-06,ss
1e-05,0.825,1.2375,0.629168673,5.5550408e-05,2.5079062e-05,8.79227733e-05,1.02637968e-05,5.65411438e-05,872708748.0,1e-06,2e-06,ss
1.5e-05,0.825,1.2375,0.707814114,6.83666097e-05,2.5079062e-05,8.79227733e-05,1.52057196e-05,6.90165218e-05,714958527.0,1e-06,2e-06,ss
2e-05,0.825,1.2375,0.77401582,7.85590944e-05,2.5079062e-05,8.79227733e-05,2.01044871e-05,7.88640373e-05,625683803.0,1e-06,2e-06,ss
2.5e-05,0.825,1.2375,0.832805709,8.70359529e-05,2.5079062e-05,8.79227733e-05,2.49827131e-05,8.69858475e-05,567264127.0,1e-06,2e-06,ss
3e-05,0.825,1.2375,0.886516629,9.42558894e-05,2.5079062e-05,8.79227733e-05,2.98412087e-05,9.38314722e-05,525878467.0,1e-06,2e-06,ss
5e-06,1.2375,1.2375,0.52515425,3.80199907e-05,7.08155797e-05,0.00012853921,5.27425503e-06,3.93428939e-05,444170889.0,1e-06,2e-06,ss
1e-05,1.2375,1.2375,0.629168673,5.5550408e-05,7.08155797e-05,0.00012853921,1.02637968e-05,5.65411438e-05,309066407.0,1e-06,2e-06,ss
1.5e-05,1.2375,1.2375,0.707814114,6.83666097e-05,7.08155797e-05,0.00012853921,1.52057196e-05,6.90165218e-05,253199780.0,1e-06,2e-06,ss
2e-05,1.2375,1.2375,0.77401582,7.85590944e-05,7.08155797e-05,0.00012853921,2.01044871e-05,7.88640373e-05,221583484.0,1e-06,2e-06,ss
2.5e-05,1.2375,1.2375,0.832805709,8.70359529e-05,7.08155797e-05,0.00012853921,2.49827131e-05,8.69858475e-05,200894383.0,1e-06,2e-06,ss
3e-05,1.2375,1.2375,0.886516629,9.42558894e-05,7.08155797e-05,0.00012853921,2.98412087e-05,9.38314722e-05,186237813.0,1e-06,2e-06,ss
5e-06,1.65,1.2375,0.52515425,3.80199907e-05,0.000127066838,0.000139282568,5.27425503e-06,3.93428939e-05,247540739.0,1e-06,2e-06,ss
1e-05,1.65,1.2375,0.629168673,5.5550408e-05,0.000127066838,0.000139282568,1.02637968e-05,5.65411438e-05,172245703.0,1e-06,2e-06,ss
1.5e-05,1.65,1.2375,0.707814114,6.83666097e-05,0.000127066838,0.000139282568,1.52057196e-05,6.90165218e-05,141110690.0,1e-06,2e-06,ss
2e-05,1.65,1.2375,0.77401582,7.85590944e-05,0.000127066838,0.000139282568,2.01044871e-05,7.88640373e-05,123490622.0,1e-06,2e-06,ss
2.5e-05,1.65,1.2375,0.832805709,8.70359529e-05,0.000127066838,0.000139282568,2.49827131e-05,8.69858475e-05,111960386.0,1e-06,2e-06,ss
3e-05,1.65,1.2375,0.886516629,9.42558894e-05,0.000127066838,0.000139282568,2.98412087e-05,9.38314722e-05,103792137.0,1e-06,2e-06,ss
5e-06,0.4125,0.825,0.525154251,3.80199909e-05,1.87434136e-06,2.13108675e-05,5.27425508e-06,3.93428941e-05,11187652200.0,1e-06,2e-06,ss
1e-05,0.4125,0.825,0.629168673,5.5550408e-05,1.87434136e-06,2.13108675e-05,1.02637968e-05,5.65411438e-05,7784678290.0,1e-06,2e-06,ss
1.5e-05,0.4125,0.825,0.707814114,6.83666097e-05,1.87434136e-06,2.13108675e-05,1.52057196e-05,6.90165218e-05,6377525310.0,1e-06,2e-06,ss
2e-05,0.4125,0.825,0.77401582,7.85590944e-05,1.87434136e-06,2.13108675e-05,2.01044871e-05,7.88640373e-05,5581182880.0,1e-06,2e-06,ss
2.5e-05,0.4125,0.825,0.832805709,8.70359529e-05,1.87434136e-06,2.13108675e-05,2.49827131e-05,8.69858475e-05,5060071580.0,1e-06,2e-06,ss
3e-05,0.4125,0.825,0.886516629,9.42558894e-05,1.87434136e-06,2.13108675e-05,2.98412087e-05,9.38314722e-05,4690905980.0,1e-06,2e-06,ss
5e-06,0.825,0.825,0.52515425,3.80199907e-05,2.43077849e-05,8.59441135e-05,5.27425503e-06,3.93428939e-05,862665166.0,1e-06,2e-06,ss
1e-05,0.825,0.825,0.629168673,5.5550408e-05,2.43077849e-05,8.59441135e-05,1.02637968e-05,5.65411438e-05,600266317.0,1e-06,2e-06,ss
1.5e-05,0.825,0.825,0.707814114,6.83666097e-05,2.43077849e-05,8.59441135e-05,1.52057196e-05,6.90165218e-05,491762599.0,1e-06,2e-06,ss
2e-05,0.825,0.825,0.77401582,7.85590944e-05,2.43077849e-05,8.59441135e-05,2.01044871e-05,7.88640373e-05,430357680.0,1e-06,2e-06,ss
2.5e-05,0.825,0.825,0.832805709,8.70359529e-05,2.43077849e-05,8.59441135e-05,2.49827131e-05,8.69858475e-05,390175473.0,1e-06,2e-06,ss
3e-05,0.825,0.825,0.886516629,9.42558894e-05,2.43077849e-05,8.59441135e-05,2.98412087e-05,9.38314722e-05,361709598.0,1e-06,2e-06,ss
5e-06,1.2375,0.825,0.52515425,3.80199907e-05,6.85969143e-05,0.00012126222,5.27425503e-06,3.93428939e-05,305691291.0,1e-06,2e-06,ss
1e-05,1.2375,0.825,0.629168673,5.5550408e-05,6.85969143e-05,0.00012126222,1.02637968e-05,5.65411438e-05,212708467.0,1e-06,2e-06,ss
1.5e-05,1.2375,0.825,0.707814114,6.83666097e-05,6.85969143e-05,0.00012126222,1.52057196e-05,6.90165218e-05,174259434.0,1e-06,2e-06,ss
2e-05,1.2375,0.825,0.77401582,7.85590944e-05,6.85969143e-05,0.00012126222,2.01044871e-05,7.88640373e-05,152500182.0,1e-06,2e-06,ss
2.5e-05,1.2375,0.825,0.832805709,8.70359529e-05,6.85969143e-05,0.00012126222,2.49827131e-05,8.69858475e-05,138261342.0,1e-06,2e-06,ss
3e-05,1.2375,0.825,0.886516629,9.42558894e-05,6.85969143e-05,0.00012126222,2.98412087e-05,9.38314722e-05,128174266.0,1e-06,2e-06,ss
5e-06,1.65,0.825,0.52515425,3.80199907e-05,0.000115525609,9.71621474e-05,5.27425503e-06,3.93428939e-05,181513687.0,1e-06,2e-06,ss
1e-05,1.65,0.825,0.629168673,5.5550408e-05,0.000115525609,9.71621474e-05,1.02637968e-05,5.65411438e-05,126302251.0,1e-06,2e-06,ss
1.5e-05,1.65,0.825,0.707814114,6.83666097e-05,0.000115525609,9.71621474e-05,1.52057196e-05,6.90165218e-05,103471945.0,1e-06,2e-06,ss
2e-05,1.65,0.825,0.77401582,7.85590944e-05,0.000115525609,9.71621474e-05,2.01044871e-05,7.88640373e-05,90551713.8,1e-06,2e-06,ss
2.5e-05,1.65,0.825,0.832805709,8.70359529e-05,0.000115525609,9.71621474e-05,2.49827131e-05,8.69858475e-05,82096961.1,1e-06,2e-06,ss
3e-05,1.65,0.825,0.886516629,9.42558894e-05,0.000115525609,9.71621474e-05,2.98412087e-05,9.38314722e-05,76107446.3,1e-06,2e-06,ss
5e-06,0.4125,0.4125,0.525154251,3.80199909e-05,1.66936715e-06,1.97998345e-05,5.27425508e-06,3.93428941e-05,6280667260.0,1e-06,2e-06,ss
1e-05,0.4125,0.4125,0.629168673,5.5550408e-05,1.66936715e-06,1.97998345e-05,1.02637968e-05,5.65411438e-05,4370262260.0,1e-06,2e-06,ss
1.5e-05,0.4125,0.4125,0.707814114,6.83666097e-05,1.66936715e-06,1.97998345e-05,1.52057196e-05,6.90165218e-05,3580296720.0,1e-06,2e-06,ss
2e-05,0.4125,0.4125,0.77401582,7.85590944e-05,1.66936715e-06,1.97998345e-05,2.01044871e-05,7.88640373e-05,3133235820.0,1e-06,2e-06,ss
2.5e-05,0.4125,0.4125,0.832805709,8.70359529e-05,1.66936715e-06,1.97998345e-05,2.49827131e-05,8.69858475e-05,2840687700.0,1e-06,2e-06,ss
3e-05,0.4125,0.4125,0.886516629,9.42558894e-05,1.66936715e-06,1.97998345e-05,2.98412087e-05,9.38314722e-05,2633440800.0,1e-06,2e-06,ss
5e-06,0.825,0.4125,0.52515425,3.80199907e-05,2.26912569e-05,7.58593645e-05,5.27425503e-06,3.93428939e-05,462060770.0,1e-06,2e-06,ss
1e-05,0.825,0.4125,0.629168673,5.5550408e-05,2.26912569e-05,7.58593645e-05,1.02637968e-05,5.65411438e-05,321514682.0,1e-06,2e-06,ss
1.5e-05,0.825,0.4125,0.707814114,6.83666097e-05,2.26912569e-05,7.58593645e-05,1.52057196e-05,6.90165218e-05,263397914.0,1e-06,2e-06,ss
2e-05,0.825,0.4125,0.77401582,7.85590944e-05,2.26912569e-05,7.58593645e-05,2.01044871e-05,7.88640373e-05,230508207.0,1e-06,2e-06,ss
2.5e-05,0.825,0.4125,0.832805709,8.70359529e-05,2.26912569e-05,7.58593645e-05,2.49827131e-05,8.69858475e-05,208985811.0,1e-06,2e-06,ss
3e-05,0.825,0.4125,0.886516629,9.42558894e-05,2.26912569e-05,7.58593645e-05,2.98412087e-05,9.38314722e-05,193738918.0,1e-06,2e-06,ss
5e-06,1.2375,0.4125,0.52515425,3.80199907e-05,5.20323769e-05,6.05602028e-05,5.27425503e-06,3.93428939e-05,201504146.0,1e-06,2e-06,ss
1e-05,1.2375,0.4125,0.629168673,5.5550408e-05,5.20323769e-05,6.05602028e-05,1.02637968e-05,5.65411438e-05,140212166.0,1e-06,2e-06,ss
1.5e-05,1.2375,0.4125,0.707814114,6.83666097e-05,5.20323769e-05,6.05602028e-05,1.52057196e-05,6.90165218e-05,114867513.0,1e-06,2e-06,ss
2e-05,1.2375,0.4125,0.77401582,7.85590944e-05,5.20323769e-05,6.05602028e-05,2.01044871e-05,7.88640373e-05,100524352.0,1e-06,2e-06,ss
2.5e-05,1.2375,0.4125,0.832805709,8.70359529e-05,5.20323769e-05,6.05602028e-05,2.49827131e-05,8.69858475e-05,91138460.6,1e-06,2e-06,ss
3e-05,1.2375,0.4125,0.886516629,9.42558894e-05,5.20323769e-05,6.05602028e-05,2.98412087e-05,9.38314722e-05,84489308.8,1e-06,2e-06,ss
5e-06,1.65,0.4125,0.52515425,3.80199907e-05,7.20261708e-05,3.71397229e-05,5.27425503e-06,3.93428939e-05,145568472.0,1e-06,2e-06,ss
1e-05,1.65,0.4125,0.629168673,5.5550408e-05,7.20261708e-05,3.71397229e-05,1.02637968e-05,5.65411438e-05,101290575.0,1e-06,2e-06,ss
1.5e-05,1.65,0.4125,0.707814114,6.83666097e-05,7.20261708e-05,3.71397229e-05,1.52057196e-05,6.90165218e-05,82981361.8,1e-06,2e-06,ss
2e-05,1.65,0.4125,0.77401582,7.85590944e-05,7.20261708e-05,3.71397229e-05,2.01044871e-05,7.88640373e-05,72619728.4,1e-06,2e-06,ss
2.5e-05,1.65,0.4125,0.832805709,8.70359529e-05,7.20261708e-05,3.71397229e-05,2.49827131e-05,8.69858475e-05,65839273.1,1e-06,2e-06,ss
3e-05,1.65,0.4125,0.886516629,9.42558894e-05,7.20261708e-05,3.71397229e-05,2.98412087e-05,9.38314722e-05,61035863.9,1e-06,2e-06,ss
5e-06,0.4125,0.05,0.525154251,3.80199909e-05,8.54335e-07,8.03867614e-06,5.27425508e-06,3.93428941e-05,1487563460.0,1e-06,2e-06,ss
1e-05,0.4125,0.05,0.629168673,5.5550408e-05,8.54335e-07,8.03867614e-06,1.02637968e-05,5.65411438e-05,1035087860.0,1e-06,2e-06,ss
1.5e-05,0.4125,0.05,0.707814114,6.83666097e-05,8.54335e-07,8.03867614e-06,1.52057196e-05,6.90165218e-05,847986106.0,1e-06,2e-06,ss
2e-05,0.4125,0.05,0.77401582,7.85590944e-05,8.54335e-07,8.03867614e-06,2.01044871e-05,7.88640373e-05,742100628.0,1e-06,2e-06,ss
2.5e-05,0.4125,0.05,0.832805709,8.70359529e-05,8.54335e-07,8.03867614e-06,2.49827131e-05,8.69858475e-05,672811191.0,1e-06,2e-06,ss
3e-05,0.4125,0.05,0.886516629,9.42558894e-05,8.54335e-07,8.03867614e-06,2.98412087e-05,9.38314722e-05,623725177.0,1e-06,2e-06,ss
5e-06,0.825,0.05,0.52515425,3.80199907e-05,4.79548222e-06,9.1620307e-06,5.27425503e-06,3.93428939e-05,265015587.0,1e-06,2e-06,ss
1e-05,0.825,0.05,0.629168673,5.5550408e-05,4.79548222e-06,9.1620307e-06,1.02637968e-05,5.65411438e-05,184405186.0,1e-06,2e-06,ss
1.5e-05,0.825,0.05,0.707814114,6.83666097e-05,4.79548222e-06,9.1620307e-06,1.52057196e-05,6.90165218e-05,151072234.0,1e-06,2e-06,ss
2e-05,0.825,0.05,0.77401582,7.85590944e-05,4.79548222e-06,9.1620307e-06,2.01044871e-05,7.88640373e-05,132208298.0,1e-06,2e-06,ss
2.5e-05,0.825,0.05,0.832805709,8.70359529e-05,4.79548222e-06,9.1620307e-06,2.49827131e-05,8.69858475e-05,119864098.0,1e-06,2e-06,ss
3e-05,0.825,0.05,0.886516629,9.42558894e-05,4.79548222e-06,9.1620307e-06,2.98412087e-05,9.38314722e-05,111119221.0,1e-06,2e-06,ss
5e-06,1.2375,0.05,0.52515425,3.80199907e-05,7.9397854e-06,6.03269433e-06,5.27425503e-06,3.93428939e-05,160064469.0,1e-06,2e-06,ss
1e-05,1.2375,0.05,0.629168673,5.5550408e-05,7.9397854e-06,6.03269433e-06,1.02637968e-05,5.65411438e-05,111377291.0,1e-06,2e-06,ss
1.5e-05,1.2375,0.05,0.707814114,6.83666097e-05,7.9397854e-06,6.03269433e-06,1.52057196e-05,6.90165218e-05,91244810.0,1e-06,2e-06,ss
2e-05,1.2375,0.05,0.77401582,7.85590944e-05,7.9397854e-06,6.03269433e-06,2.01044871e-05,7.88640373e-05,79851344.6,1e-06,2e-06,ss
2.5e-05,1.2375,0.05,0.832805709,8.70359529e-05,7.9397854e-06,6.03269433e-06,2.49827131e-05,8.69858475e-05,72395678.2,1e-06,2e-06,ss
3e-05,1.2375,0.05,0.886516629,9.42558894e-05,7.9397854e-06,6.03269433e-06,2.98412087e-05,9.38314722e-05,67113936.0,1e-06,2e-06,ss
5e-06,1.65,0.05,0.52515425,3.80199907e-05,9.85088584e-06,3.38097963e-06,5.27425503e-06,3.93428939e-05,129011497.0,1e-06,2e-06,ss
1e-05,1.65,0.05,0.629168673,5.5550408e-05,9.85088584e-06,3.38097963e-06,1.02637968e-05,5.65411438e-05,89769773.3,1e-06,2e-06,ss
1.5e-05,1.65,0.05,0.707814114,6.83666097e-05,9.85088584e-06,3.38097963e-06,1.52057196e-05,6.90165218e-05,73543052.1,1e-06,2e-06,ss
2e-05,1.65,0.05,0.77401582,7.85590944e-05,9.85088584e-06,3.38097963e-06,2.01044871e-05,7.88640373e-05,64359952.1,1e-06,2e-06,ss
2.5e-05,1.65,0.05,0.832805709,8.70359529e-05,9.85088584e-06,3.38097963e-06,2.49827131e-05,8.69858475e-05,58350706.6,1e-06,2e-06,ss
3e-05,1.65,0.05,0.886516629,9.42558894e-05,9.85088584e-06,3.38097963e-06,2.98412087e-05,9.38314722e-05,54093637.7,1e-06,2e-06,ss
5e-06,0.4125,1.65,0.416598386,5.56826279e-05,6.14748686e-06,6.31328136e-05,5.59133153e-06,5.96900537e-05,4496601130.0,2.5e-06,2e-06,ss
1e-05,0.4125,1.65,0.486181662,8.4205951e-05,6.14748686e-06,6.31328136e-05,1.07149054e-05,8.78918376e-05,3053780310.0,2.5e-06,2e-06,ss
1.5e-05,0.4125,1.65,0.537373851,0.000106090498,6.14748686e-06,6.31328136e-05,1.57643522e-05,0.000109434101,2452639180.0,2.5e-06,2e-06,ss
2e-05,0.4125,1.65,0.57954487,0.000124256948,6.14748686e-06,6.31328136e-05,2.07553747e-05,0.000127258126,2109117680.0,2.5e-06,2e-06,ss
2.5e-05,0.4125,1.65,0.616350282,0.00014001977,6.14748686e-06,6.31328136e-05,2.57235663e-05,0.00014267975,1881152460.0,2.5e-06,2e-06,ss
