 i-sweep         v(VG)           v(VD)           v(Vbias)        gmrp            Ipeak_unit      gmron_unit      Ibias_unit      gmbias_unit     Ron_Gm_unit     width           length         
 5.00000000e-06  4.12500000e-01  1.65000000e+00  4.70273517e-01  5.18685505e-05  3.55497423e-06  4.21898464e-05  5.57679849e-06  5.55468549e-05  8.35579956e+09  1.00000000e-06  9.00000000e-07 
 1.00000000e-05  4.12500000e-01  1.65000000e+00  5.44822361e-01  7.79635496e-05  3.55497423e-06  4.21898464e-05  1.06682669e-05  8.12490908e-05  5.71253637e+09  1.00000000e-06  9.00000000e-07 
 1.50000000e-05  4.12500000e-01  1.65000000e+00  5.99959619e-01  9.77098017e-05  3.55497423e-06  4.21898464e-05  1.56813606e-05  1.00567669e-04  4.61518489e+09  1.00000000e-06  9.00000000e-07 
 2.00000000e-05  4.12500000e-01  1.65000000e+00  6.45615267e-01  1.13861197e-04  3.55497423e-06  4.21898464e-05  2.06331127e-05  1.16280655e-04  3.99153570e+09  1.00000000e-06  9.00000000e-07 
 2.50000000e-05  4.12500000e-01  1.65000000e+00  6.85652674e-01  1.27658089e-04  3.55497423e-06  4.21898464e-05  2.55575792e-05  1.29633032e-04  3.58040215e+09  1.00000000e-06  9.00000000e-07 
 3.00000000e-05  4.12500000e-01  1.65000000e+00  7.21828830e-01  1.39712617e-04  3.55497423e-06  4.21898464e-05  3.04585812e-05  1.41239124e-04  3.28618852e+09  1.00000000e-06  9.00000000e-07 
 5.00000000e-06  8.25000000e-01  1.65000000e+00  4.70273516e-01  5.18685501e-05  5.00906339e-05  1.80015628e-04  5.57679843e-06  5.55468546e-05  5.93018094e+08  1.00000000e-06  9.00000000e-07 
 1.00000000e-05  8.25000000e-01  1.65000000e+00  5.44822361e-01  7.79635496e-05  5.00906339e-05  1.80015628e-04  1.06682669e-05  8.12490908e-05  4.05423489e+08  1.00000000e-06  9.00000000e-07 
 1.50000000e-05  8.25000000e-01  1.65000000e+00  5.99959619e-01  9.77098017e-05  5.00906339e-05  1.80015628e-04  1.56813606e-05  1.00567669e-04  3.27543536e+08  1.00000000e-06  9.00000000e-07 
 2.00000000e-05  8.25000000e-01  1.65000000e+00  6.45615267e-01  1.13861197e-04  5.00906339e-05  1.80015628e-04  2.06331127e-05  1.16280655e-04  2.83282631e+08  1.00000000e-06  9.00000000e-07 
 2.50000000e-05  8.25000000e-01  1.65000000e+00  6.85652674e-01  1.27658089e-04  5.00906339e-05  1.80015628e-04  2.55575792e-05  1.29633032e-04  2.54104139e+08  1.00000000e-06  9.00000000e-07 
 3.00000000e-05  8.25000000e-01  1.65000000e+00  7.21828830e-01  1.39712617e-04  5.00906339e-05  1.80015628e-04  3.04585812e-05  1.41239124e-04  2.33223550e+08  1.00000000e-06  9.00000000e-07 
 5.00000000e-06  1.23750000e+00  1.65000000e+00  4.70273516e-01  5.18685501e-05  1.42518177e-04  2.55835787e-04  5.57679843e-06  5.55468546e-05  2.08427113e+08  1.00000000e-06  9.00000000e-07 
 1.00000000e-05  1.23750000e+00  1.65000000e+00  5.44822361e-01  7.79635496e-05  1.42518177e-04  2.55835787e-04  1.06682669e-05  8.12490908e-05  1.42493540e+08  1.00000000e-06  9.00000000e-07 
 1.50000000e-05  1.23750000e+00  1.65000000e+00  5.99959619e-01  9.77098017e-05  1.42518177e-04  2.55835787e-04  1.56813606e-05  1.00567669e-04  1.15121198e+08  1.00000000e-06  9.00000000e-07 
 2.00000000e-05  1.23750000e+00  1.65000000e+00  6.45615267e-01  1.13861197e-04  1.42518177e-04  2.55835787e-04  2.06331127e-05  1.16280655e-04  9.95648894e+07  1.00000000e-06  9.00000000e-07 
 2.50000000e-05  1.23750000e+00  1.65000000e+00  6.85652674e-01  1.27658089e-04  1.42518177e-04  2.55835787e-04  2.55575792e-05  1.29633032e-04  8.93095718e+07  1.00000000e-06  9.00000000e-07 
 3.00000000e-05  1.23750000e+00  1.65000000e+00  7.21828830e-01  1.39712617e-04  1.42518177e-04  2.55835787e-04  3.04585812e-05  1.41239124e-04  8.19707051e+07  1.00000000e-06  9.00000000e-07 
 5.00000000e-06  1.65000000e+00  1.65000000e+00  4.70273516e-01  5.18685501e-05  2.53400502e-04  2.75106604e-04  5.57679843e-06  5.55468546e-05  1.17224126e+08  1.00000000e-06  9.00000000e-07 
 1.00000000e-05  1.65000000e+00  1.65000000e+00  5.44822361e-01  7.79635496e-05  2.53400502e-04  2.75106604e-04  1.06682669e-05  8.12490908e-05  8.01415917e+07  1.00000000e-06  9.00000000e-07 
 1.50000000e-05  1.65000000e+00  1.65000000e+00  5.99959619e-01  9.77098017e-05  2.53400502e-04  2.75106604e-04  1.56813606e-05  1.00567669e-04  6.47467674e+07  1.00000000e-06  9.00000000e-07 
 2.00000000e-05  1.65000000e+00  1.65000000e+00  6.45615267e-01  1.13861197e-04  2.53400502e-04  2.75106604e-04  2.06331127e-05  1.16280655e-04  5.59975471e+07  1.00000000e-06  9.00000000e-07 
 2.50000000e-05  1.65000000e+00  1.65000000e+00  6.85652674e-01  1.27658089e-04  2.53400502e-04  2.75106604e-04  2.55575792e-05  1.29633032e-04  5.02297244e+07  1.00000000e-06  9.00000000e-07 
 3.00000000e-05  1.65000000e+00  1.65000000e+00  7.21828830e-01  1.39712617e-04  2.53400502e-04  2.75106604e-04  3.04585812e-05  1.41239124e-04  4.61021797e+07  1.00000000e-06  9.00000000e-07 
 i-sweep         v(VG)           v(VD)           v(Vbias)        gmrp            Ipeak_unit      gmron_unit      Ibias_unit      gmbias_unit     Ron_Gm_unit     width           length         
 5.00000000e-06  4.12500000e-01  1.60000000e+00  4.70273517e-01  5.18685505e-05  3.52199996e-06  4.19358679e-05  5.57679849e-06  5.55468549e-05  8.17845300e+09  1.00000000e-06  9.00000000e-07 
 1.00000000e-05  4.12500000e-01  1.60000000e+00  5.44822361e-01  7.79635496e-05  3.52199996e-06  4.19358679e-05  1.06682669e-05  8.12490908e-05  5.59129139e+09  1.00000000e-06  9.00000000e-07 
 1.50000000e-05  4.12500000e-01  1.60000000e+00  5.99959619e-01  9.77098017e-05  3.52199996e-06  4.19358679e-05  1.56813606e-05  1.00567669e-04  4.51723051e+09  1.00000000e-06  9.00000000e-07 
 2.00000000e-05  4.12500000e-01  1.60000000e+00  6.45615267e-01  1.13861197e-04  3.52199996e-06  4.19358679e-05  2.06331127e-05  1.16280655e-04  3.90681788e+09  1.00000000e-06  9.00000000e-07 
 2.50000000e-05  4.12500000e-01  1.60000000e+00  6.85652674e-01  1.27658089e-04  3.52199996e-06  4.19358679e-05  2.55575792e-05  1.29633032e-04  3.50441038e+09  1.00000000e-06  9.00000000e-07 
 3.00000000e-05  4.12500000e-01  1.60000000e+00  7.21828830e-01  1.39712617e-04  3.52199996e-06  4.19358679e-05  3.04585812e-05  1.41239124e-04  3.21644124e+09  1.00000000e-06  9.00000000e-07 
 5.00000000e-06  8.25000000e-01  1.60000000e+00  4.70273516e-01  5.18685501e-05  4.99290263e-05  1.79650429e-04  5.57679843e-06  5.55468546e-05  5.76909134e+08  1.00000000e-06  9.00000000e-07 
 1.00000000e-05  8.25000000e-01  1.60000000e+00  5.44822361e-01  7.79635496e-05  4.99290263e-05  1.79650429e-04  1.06682669e-05  8.12490908e-05  3.94410417e+08  1.00000000e-06  9.00000000e-07 
 1.50000000e-05  8.25000000e-01  1.60000000e+00  5.99959619e-01  9.77098017e-05  4.99290263e-05  1.79650429e-04  1.56813606e-05  1.00567669e-04  3.18646023e+08  1.00000000e-06  9.00000000e-07 
 2.00000000e-05  8.25000000e-01  1.60000000e+00  6.45615267e-01  1.13861197e-04  4.99290263e-05  1.79650429e-04  2.06331127e-05  1.16280655e-04  2.75587438e+08  1.00000000e-06  9.00000000e-07 
 2.50000000e-05  8.25000000e-01  1.60000000e+00  6.85652674e-01  1.27658089e-04  4.99290263e-05  1.79650429e-04  2.55575792e-05  1.29633032e-04  2.47201561e+08  1.00000000e-06  9.00000000e-07 
 3.00000000e-05  8.25000000e-01  1.60000000e+00  7.21828830e-01  1.39712617e-04  4.99290263e-05  1.79650429e-04  3.04585812e-05  1.41239124e-04  2.26888180e+08  1.00000000e-06  9.00000000e-07 
 5.00000000e-06  1.23750000e+00  1.60000000e+00  4.70273516e-01  5.18685501e-05  1.42188060e-04  2.55374175e-04  5.57679843e-06  5.55468546e-05  2.02580381e+08  1.00000000e-06  9.00000000e-07 
 1.00000000e-05  1.23750000e+00  1.60000000e+00  5.44822361e-01  7.79635496e-05  1.42188060e-04  2.55374175e-04  1.06682669e-05  8.12490908e-05  1.38496356e+08  1.00000000e-06  9.00000000e-07 
 1.50000000e-05  1.23750000e+00  1.60000000e+00  5.99959619e-01  9.77098017e-05  1.42188060e-04  2.55374175e-04  1.56813606e-05  1.00567669e-04  1.11891855e+08  1.00000000e-06  9.00000000e-07 
 2.00000000e-05  1.23750000e+00  1.60000000e+00  6.45615267e-01  1.13861197e-04  1.42188060e-04  2.55374175e-04  2.06331127e-05  1.16280655e-04  9.67719263e+07  1.00000000e-06  9.00000000e-07 
 2.50000000e-05  1.23750000e+00  1.60000000e+00  6.85652674e-01  1.27658089e-04  1.42188060e-04  2.55374175e-04  2.55575792e-05  1.29633032e-04  8.68042877e+07  1.00000000e-06  9.00000000e-07 
 3.00000000e-05  1.23750000e+00  1.60000000e+00  7.21828830e-01  1.39712617e-04  1.42188060e-04  2.55374175e-04  3.04585812e-05  1.41239124e-04  7.96712886e+07  1.00000000e-06  9.00000000e-07 
 5.00000000e-06  1.65000000e+00  1.60000000e+00  4.70273516e-01  5.18685501e-05  2.52823066e-04  2.74285239e-04  5.57679843e-06  5.55468546e-05  1.13931501e+08  1.00000000e-06  9.00000000e-07 
 1.00000000e-05  1.65000000e+00  1.60000000e+00  5.44822361e-01  7.79635496e-05  2.52823066e-04  2.74285239e-04  1.06682669e-05  8.12490908e-05  7.78905516e+07  1.00000000e-06  9.00000000e-07 
 1.50000000e-05  1.65000000e+00  1.60000000e+00  5.99959619e-01  9.77098017e-05  2.52823066e-04  2.74285239e-04  1.56813606e-05  1.00567669e-04  6.29281416e+07  1.00000000e-06  9.00000000e-07 
 2.00000000e-05  1.65000000e+00  1.60000000e+00  6.45615267e-01  1.13861197e-04  2.52823066e-04  2.74285239e-04  2.06331127e-05  1.16280655e-04  5.44246720e+07  1.00000000e-06  9.00000000e-07 
 2.50000000e-05  1.65000000e+00  1.60000000e+00  6.85652674e-01  1.27658089e-04  2.52823066e-04  2.74285239e-04  2.55575792e-05  1.29633032e-04  4.88188575e+07  1.00000000e-06  9.00000000e-07 
 3.00000000e-05  1.65000000e+00  1.60000000e+00  7.21828830e-01  1.39712617e-04  2.52823066e-04  2.74285239e-04  3.04585812e-05  1.41239124e-04  4.48072485e+07  1.00000000e-06  9.00000000e-07 
 i-sweep         v(VG)           v(VD)           v(Vbias)        gmrp            Ipeak_unit      gmron_unit      Ibias_unit      gmbias_unit     Ron_Gm_unit     width           length         
 5.00000000e-06  4.12500000e-01  1.23750000e+00  4.70273517e-01  5.18685505e-05  3.26251698e-06  3.99221929e-05  5.57679849e-06  5.55468549e-05  6.82862012e+09  1.00000000e-06  9.00000000e-07 
 1.00000000e-05  4.12500000e-01  1.23750000e+00  5.44822361e-01  7.79635496e-05  3.26251698e-06  3.99221929e-05  1.06682669e-05  8.12490908e-05  4.66846296e+09  1.00000000e-06  9.00000000e-07 
 1.50000000e-05  4.12500000e-01  1.23750000e+00  5.99959619e-01  9.77098017e-05  3.26251698e-06  3.99221929e-05  1.56813606e-05  1.00567669e-04  3.77167310e+09  1.00000000e-06  9.00000000e-07 
 2.00000000e-05  4.12500000e-01  1.23750000e+00  6.45615267e-01  1.13861197e-04  3.26251698e-06  3.99221929e-05  2.06331127e-05  1.16280655e-04  3.26200752e+09  1.00000000e-06  9.00000000e-07 
 2.50000000e-05  4.12500000e-01  1.23750000e+00  6.85652674e-01  1.27658089e-04  3.26251698e-06  3.99221929e-05  2.55575792e-05  1.29633032e-04  2.92601636e+09  1.00000000e-06  9.00000000e-07 
 3.00000000e-05  4.12500000e-01  1.23750000e+00  7.21828830e-01  1.39712617e-04  3.26251698e-06  3.99221929e-05  3.04585812e-05  1.41239124e-04  2.68557579e+09  1.00000000e-06  9.00000000e-07 
 5.00000000e-06  8.25000000e-01  1.23750000e+00  4.70273516e-01  5.18685501e-05  4.86088267e-05  1.76551093e-04  5.57679843e-06  5.55468546e-05  4.58321888e+08  1.00000000e-06  9.00000000e-07 
 1.00000000e-05  8.25000000e-01  1.23750000e+00  5.44822361e-01  7.79635496e-05  4.86088267e-05  1.76551093e-04  1.06682669e-05  8.12490908e-05  3.13336913e+08  1.00000000e-06  9.00000000e-07 
 1.50000000e-05  8.25000000e-01  1.23750000e+00  5.99959619e-01  9.77098017e-05  4.86088267e-05  1.76551093e-04  1.56813606e-05  1.00567669e-04  2.53146360e+08  1.00000000e-06  9.00000000e-07 
 2.00000000e-05  8.25000000e-01  1.23750000e+00  6.45615267e-01  1.13861197e-04  4.86088267e-05  1.76551093e-04  2.06331127e-05  1.16280655e-04  2.18938733e+08  1.00000000e-06  9.00000000e-07 
 2.50000000e-05  8.25000000e-01  1.23750000e+00  6.85652674e-01  1.27658089e-04  4.86088267e-05  1.76551093e-04  2.55575792e-05  1.29633032e-04  1.96387749e+08  1.00000000e-06  9.00000000e-07 
 3.00000000e-05  8.25000000e-01  1.23750000e+00  7.21828830e-01  1.39712617e-04  4.86088267e-05  1.76551093e-04  3.04585812e-05  1.41239124e-04  1.80249910e+08  1.00000000e-06  9.00000000e-07 
 5.00000000e-06  1.23750000e+00  1.23750000e+00  4.70273516e-01  5.18685501e-05  1.39350279e-04  2.50859729e-04  5.57679843e-06  5.55468546e-05  1.59874020e+08  1.00000000e-06  9.00000000e-07 
 1.00000000e-05  1.23750000e+00  1.23750000e+00  5.44822361e-01  7.79635496e-05  1.39350279e-04  2.50859729e-04  1.06682669e-05  8.12490908e-05  1.09299671e+08  1.00000000e-06  9.00000000e-07 
 1.50000000e-05  1.23750000e+00  1.23750000e+00  5.99959619e-01  9.77098017e-05  1.39350279e-04  2.50859729e-04  1.56813606e-05  1.00567669e-04  8.83037165e+07  1.00000000e-06  9.00000000e-07 
 2.00000000e-05  1.23750000e+00  1.23750000e+00  6.45615267e-01  1.13861197e-04  1.39350279e-04  2.50859729e-04  2.06331127e-05  1.16280655e-04  7.63712496e+07  1.00000000e-06  9.00000000e-07 
 2.50000000e-05  1.23750000e+00  1.23750000e+00  6.85652674e-01  1.27658089e-04  1.39350279e-04  2.50859729e-04  2.55575792e-05  1.29633032e-04  6.85049081e+07  1.00000000e-06  9.00000000e-07 
 3.00000000e-05  1.23750000e+00  1.23750000e+00  7.21828830e-01  1.39712617e-04  1.39350279e-04  2.50859729e-04  3.04585812e-05  1.41239124e-04  6.28756304e+07  1.00000000e-06  9.00000000e-07 
 5.00000000e-06  1.65000000e+00  1.23750000e+00  4.70273516e-01  5.18685501e-05  2.47130586e-04  2.63372584e-04  5.57679843e-06  5.55468546e-05  9.01486519e+07  1.00000000e-06  9.00000000e-07 
 1.00000000e-05  1.65000000e+00  1.23750000e+00  5.44822361e-01  7.79635496e-05  2.47130586e-04  2.63372584e-04  1.06682669e-05  8.12490908e-05  6.16311396e+07  1.00000000e-06  9.00000000e-07 
 1.50000000e-05  1.65000000e+00  1.23750000e+00  5.99959619e-01  9.77098017e-05  2.47130586e-04  2.63372584e-04  1.56813606e-05  1.00567669e-04  4.97920864e+07  1.00000000e-06  9.00000000e-07 
 2.00000000e-05  1.65000000e+00  1.23750000e+00  6.45615267e-01  1.13861197e-04  2.47130586e-04  2.63372584e-04  2.06331127e-05  1.16280655e-04  4.30636898e+07  1.00000000e-06  9.00000000e-07 
 2.50000000e-05  1.65000000e+00  1.23750000e+00  6.85652674e-01  1.27658089e-04  2.47130586e-04  2.63372584e-04  2.55575792e-05  1.29633032e-04  3.86280718e+07  1.00000000e-06  9.00000000e-07 
 3.00000000e-05  1.65000000e+00  1.23750000e+00  7.21828830e-01  1.39712617e-04  2.47130586e-04  2.63372584e-04  3.04585812e-05  1.41239124e-04  3.54538738e+07  1.00000000e-06  9.00000000e-07 
 i-sweep         v(VG)           v(VD)           v(Vbias)        gmrp            Ipeak_unit      gmron_unit      Ibias_unit      gmbias_unit     Ron_Gm_unit     width           length         
 5.00000000e-06  4.12500000e-01  8.25000000e-01  4.70273517e-01  5.18685505e-05  2.90985451e-06  3.71008680e-05  5.57679849e-06  5.55468549e-05  5.10414729e+09  1.00000000e-06  9.00000000e-07 
 1.00000000e-05  4.12500000e-01  8.25000000e-01  5.44822361e-01  7.79635496e-05  2.90985451e-06  3.71008680e-05  1.06682669e-05  8.12490908e-05  3.48950771e+09  1.00000000e-06  9.00000000e-07 
 1.50000000e-05  4.12500000e-01  8.25000000e-01  5.99959619e-01  9.77098017e-05  2.90985451e-06  3.71008680e-05  1.56813606e-05  1.00567669e-04  2.81918963e+09  1.00000000e-06  9.00000000e-07 
 2.00000000e-05  4.12500000e-01  8.25000000e-01  6.45615267e-01  1.13861197e-04  2.90985451e-06  3.71008680e-05  2.06331127e-05  1.16280655e-04  2.43823299e+09  1.00000000e-06  9.00000000e-07 
 2.50000000e-05  4.12500000e-01  8.25000000e-01  6.85652674e-01  1.27658089e-04  2.90985451e-06  3.71008680e-05  2.55575792e-05  1.29633032e-04  2.18709171e+09  1.00000000e-06  9.00000000e-07 
 3.00000000e-05  4.12500000e-01  8.25000000e-01  7.21828830e-01  1.39712617e-04  2.90985451e-06  3.71008680e-05  3.04585812e-05  1.41239124e-04  2.00737106e+09  1.00000000e-06  9.00000000e-07 
 5.00000000e-06  8.25000000e-01  8.25000000e-01  4.70273516e-01  5.18685501e-05  4.66240384e-05  1.71333172e-04  5.57679843e-06  5.55468546e-05  3.18555120e+08  1.00000000e-06  9.00000000e-07 
 1.00000000e-05  8.25000000e-01  8.25000000e-01  5.44822361e-01  7.79635496e-05  4.66240384e-05  1.71333172e-04  1.06682669e-05  8.12490908e-05  2.17783790e+08  1.00000000e-06  9.00000000e-07 
 1.50000000e-05  8.25000000e-01  8.25000000e-01  5.99959619e-01  9.77098017e-05  4.66240384e-05  1.71333172e-04  1.56813606e-05  1.00567669e-04  1.75948544e+08  1.00000000e-06  9.00000000e-07 
 2.00000000e-05  8.25000000e-01  8.25000000e-01  6.45615267e-01  1.13861197e-04  4.66240384e-05  1.71333172e-04  2.06331127e-05  1.16280655e-04  1.52172646e+08  1.00000000e-06  9.00000000e-07 
 2.50000000e-05  8.25000000e-01  8.25000000e-01  6.85652674e-01  1.27658089e-04  4.66240384e-05  1.71333172e-04  2.55575792e-05  1.29633032e-04  1.36498658e+08  1.00000000e-06  9.00000000e-07 
 3.00000000e-05  8.25000000e-01  8.25000000e-01  7.21828830e-01  1.39712617e-04  4.66240384e-05  1.71333172e-04  3.04585812e-05  1.41239124e-04  1.25282107e+08  1.00000000e-06  9.00000000e-07 
 5.00000000e-06  1.23750000e+00  8.25000000e-01  4.70273516e-01  5.18685501e-05  1.33954128e-04  2.36622685e-04  5.57679843e-06  5.55468546e-05  1.10876211e+08  1.00000000e-06  9.00000000e-07 
 1.00000000e-05  1.23750000e+00  8.25000000e-01  5.44822361e-01  7.79635496e-05  1.33954128e-04  2.36622685e-04  1.06682669e-05  8.12490908e-05  7.58017683e+07  1.00000000e-06  9.00000000e-07 
 1.50000000e-05  1.23750000e+00  8.25000000e-01  5.99959619e-01  9.77098017e-05  1.33954128e-04  2.36622685e-04  1.56813606e-05  1.00567669e-04  6.12406038e+07  1.00000000e-06  9.00000000e-07 
 2.00000000e-05  1.23750000e+00  8.25000000e-01  6.45615267e-01  1.13861197e-04  1.33954128e-04  2.36622685e-04  2.06331127e-05  1.16280655e-04  5.29651709e+07  1.00000000e-06  9.00000000e-07 
 2.50000000e-05  1.23750000e+00  8.25000000e-01  6.85652674e-01  1.27658089e-04  1.33954128e-04  2.36622685e-04  2.55575792e-05  1.29633032e-04  4.75096870e+07  1.00000000e-06  9.00000000e-07 
 3.00000000e-05  1.23750000e+00  8.25000000e-01  7.21828830e-01  1.39712617e-04  1.33954128e-04  2.36622685e-04  3.04585812e-05  1.41239124e-04  4.36056569e+07  1.00000000e-06  9.00000000e-07 
 5.00000000e-06  1.65000000e+00  8.25000000e-01  4.70273516e-01  5.18685501e-05  2.28349601e-04  2.06621432e-04  5.57679843e-06  5.55468546e-05  6.50420499e+07  1.00000000e-06  9.00000000e-07 
 1.00000000e-05  1.65000000e+00  8.25000000e-01  5.44822361e-01  7.79635496e-05  2.28349601e-04  2.06621432e-04  1.06682669e-05  8.12490908e-05  4.44667288e+07  1.00000000e-06  9.00000000e-07 
 1.50000000e-05  1.65000000e+00  8.25000000e-01  5.99959619e-01  9.77098017e-05  2.28349601e-04  2.06621432e-04  1.56813606e-05  1.00567669e-04  3.59248785e+07  1.00000000e-06  9.00000000e-07 
 2.00000000e-05  1.65000000e+00  8.25000000e-01  6.45615267e-01  1.13861197e-04  2.28349601e-04  2.06621432e-04  2.06331127e-05  1.16280655e-04  3.10703555e+07  1.00000000e-06  9.00000000e-07 
 2.50000000e-05  1.65000000e+00  8.25000000e-01  6.85652674e-01  1.27658089e-04  2.28349601e-04  2.06621432e-04  2.55575792e-05  1.29633032e-04  2.78700671e+07  1.00000000e-06  9.00000000e-07 
 3.00000000e-05  1.65000000e+00  8.25000000e-01  7.21828830e-01  1.39712617e-04  2.28349601e-04  2.06621432e-04  3.04585812e-05  1.41239124e-04  2.55798903e+07  1.00000000e-06  9.00000000e-07 
 i-sweep         v(VG)           v(VD)           v(Vbias)        gmrp            Ipeak_unit      gmron_unit      Ibias_unit      gmbias_unit     Ron_Gm_unit     width           length         
 5.00000000e-06  4.12500000e-01  4.12500000e-01  4.70273517e-01  5.18685505e-05  2.46042860e-06  3.32828834e-05  5.57679849e-06  5.55468549e-05  3.01823960e+09  1.00000000e-06  9.00000000e-07 
 1.00000000e-05  4.12500000e-01  4.12500000e-01  5.44822361e-01  7.79635496e-05  2.46042860e-06  3.32828834e-05  1.06682669e-05  8.12490908e-05  2.06345345e+09  1.00000000e-06  9.00000000e-07 
