i-sweep,v(VG),v(VD),v(Vbias),gmrp,Ipeak_unit,gmron_unit,Ibias_unit,gmbias_unit,Ron_Gm_unit,width,length,corner
5e-06,0.4125,1.65,0.522046798,3.24617706e-05,2.48847956e-06,2.19989317e-05,5.21424115e-06,3.33843035e-05,19861294300.0,1e-06,3e-06,tt
1e-05,0.4125,1.65,0.645015325,4.6751648e-05,2.48847956e-06,2.19989317e-05,1.01889637e-05,4.73893196e-05,13991664800.0,1e-06,3e-06,tt
1.5e-05,0.4125,1.65,0.739083841,5.69669324e-05,2.48847956e-06,2.19989317e-05,1.51202363e-05,5.73073255e-05,11570169600.0,1e-06,3e-06,tt
2e-05,0.4125,1.65,0.819000101,6.49340018e-05,2.48847956e-06,2.19989317e-05,2.00110141e-05,6.49604647e-05,10207061800.0,1e-06,3e-06,tt
2.5e-05,0.4125,1.65,0.890494327,7.14342177e-05,2.48847956e-06,2.19989317e-05,2.48792532e-05,7.11082411e-05,9324593960.0,1e-06,3e-06,tt
3e-05,0.4125,1.65,0.956246584,7.68661404e-05,2.48847956e-06,2.19989317e-05,2.9722858e-05,7.61095338e-05,8711858330.0,1e-06,3e-06,tt
5e-06,0.825,1.65,0.522047239,3.24618228e-05,2.1334308e-05,6.76752956e-05,5.21425587e-06,3.33843548e-05,2316660510.0,1e-06,3e-06,tt
1e-05,0.825,1.65,0.645015325,4.6751648e-05,2.1334308e-05,6.76752956e-05,1.01889637e-05,4.73893196e-05,1632017870.0,1e-06,3e-06,tt
1.5e-05,0.825,1.65,0.739083841,5.69669324e-05,2.1334308e-05,6.76752956e-05,1.51202363e-05,5.73073255e-05,1349569460.0,1e-06,3e-06,tt
2e-05,0.825,1.65,0.819000101,6.49340018e-05,2.1334308e-05,6.76752956e-05,2.00110141e-05,6.49604647e-05,1190573640.0,1e-06,3e-06,tt
2.5e-05,0.825,1.65,0.890494327,7.14342177e-05,2.1334308e-05,6.76752956e-05,2.48792532e-05,7.11082411e-05,1087640690.0,1e-06,3e-06,tt
3e-05,0.825,1.65,0.956246584,7.68661404e-05,2.1334308e-05,6.76752956e-05,2.9722858e-05,7.61095338e-05,1016169890.0,1e-06,3e-06,tt
5e-06,1.2375,1.65,0.522047239,3.24618228e-05,5.57273414e-05,9.56960823e-05,5.21425587e-06,3.33843548e-05,886895870.0,1e-06,3e-06,tt
1e-05,1.2375,1.65,0.645015325,4.6751648e-05,5.57273414e-05,9.56960823e-05,1.01889637e-05,4.73893196e-05,624791549.0,1e-06,3e-06,tt
1.5e-05,1.2375,1.65,0.739083841,5.69669324e-05,5.57273414e-05,9.56960823e-05,1.51202363e-05,5.73073255e-05,516660761.0,1e-06,3e-06,tt
2e-05,1.2375,1.65,0.819000101,6.49340018e-05,5.57273414e-05,9.56960823e-05,2.00110141e-05,6.49604647e-05,455791789.0,1e-06,3e-06,tt
2.5e-05,1.2375,1.65,0.890494327,7.14342177e-05,5.57273414e-05,9.56960823e-05,2.48792532e-05,7.11082411e-05,416385582.0,1e-06,3e-06,tt
3e-05,1.2375,1.65,0.956246584,7.68661404e-05,5.57273414e-05,9.56960823e-05,2.9722858e-05,7.61095338e-05,389024146.0,1e-06,3e-06,tt
5e-06,1.65,1.65,0.522047239,3.24618228e-05,9.78835027e-05,0.000106296874,5.21425587e-06,3.33843548e-05,504930326.0,1e-06,3e-06,tt
1e-05,1.65,1.65,0.645015325,4.6751648e-05,9.78835027e-05,0.000106296874,1.01889637e-05,4.73893196e-05,355708275.0,1e-06,3e-06,tt
1.5e-05,1.65,1.65,0.739083841,5.69669324e-05,9.78835027e-05,0.000106296874,1.51202363e-05,5.73073255e-05,294146917.0,1e-06,3e-06,tt
2e-05,1.65,1.65,0.819000101,6.49340018e-05,9.78835027e-05,0.000106296874,2.00110141e-05,6.49604647e-05,259492804.0,1e-06,3e-06,tt
2.5e-05,1.65,1.65,0.890494327,7.14342177e-05,9.78835027e-05,0.000106296874,2.48792532e-05,7.11082411e-05,237057940.0,1e-06,3e-06,tt
3e-05,1.65,1.65,0.956246584,7.68661404e-05,9.78835027e-05,0.000106296874,2.9722858e-05,7.61095338e-05,221480442.0,1e-06,3e-06,tt
5e-06,0.4125,1.6,0.522046798,3.24617706e-05,2.47691996e-06,2.19382103e-05,5.21424115e-06,3.33843035e-05,19349319200.0,1e-06,3e-06,tt
1e-05,0.4125,1.6,0.645015325,4.6751648e-05,2.47691996e-06,2.19382103e-05,1.01889637e-05,4.73893196e-05,13630994300.0,1e-06,3e-06,tt
1.5e-05,0.4125,1.6,0.739083841,5.69669324e-05,2.47691996e-06,2.19382103e-05,1.51202363e-05,5.73073255e-05,11271919200.0,1e-06,3e-06,tt
2e-05,0.4125,1.6,0.819000101,6.49340018e-05,2.47691996e-06,2.19382103e-05,2.00110141e-05,6.49604647e-05,9943948970.0,1e-06,3e-06,tt
2.5e-05,0.4125,1.6,0.890494327,7.14342177e-05,2.47691996e-06,2.19382103e-05,2.48792532e-05,7.11082411e-05,9084228990.0,1e-06,3e-06,tt
3e-05,0.4125,1.6,0.956246584,7.68661404e-05,2.47691996e-06,2.19382103e-05,2.9722858e-05,7.61095338e-05,8487288170.0,1e-06,3e-06,tt
5e-06,0.825,1.6,0.522047239,3.24618228e-05,2.12922205e-05,6.75879273e-05,5.21425587e-06,3.33843548e-05,2250899160.0,1e-06,3e-06,tt
1e-05,0.825,1.6,0.645015325,4.6751648e-05,2.12922205e-05,6.75879273e-05,1.01889637e-05,4.73893196e-05,1585690970.0,1e-06,3e-06,tt
1.5e-05,0.825,1.6,0.739083841,5.69669324e-05,2.12922205e-05,6.75879273e-05,1.51202363e-05,5.73073255e-05,1311260220.0,1e-06,3e-06,tt
2e-05,0.825,1.6,0.819000101,6.49340018e-05,2.12922205e-05,6.75879273e-05,2.00110141e-05,6.49604647e-05,1156777690.0,1e-06,3e-06,tt
2.5e-05,0.825,1.6,0.890494327,7.14342177e-05,2.12922205e-05,6.75879273e-05,2.48792532e-05,7.11082411e-05,1056766630.0,1e-06,3e-06,tt
3e-05,0.825,1.6,0.956246584,7.68661404e-05,2.12922205e-05,6.75879273e-05,2.9722858e-05,7.61095338e-05,987324617.0,1e-06,3e-06,tt
5e-06,1.2375,1.6,0.522047239,3.24618228e-05,5.56428262e-05,9.55745118e-05,5.21425587e-06,3.33843548e-05,861326511.0,1e-06,3e-06,tt
1e-05,1.2375,1.6,0.645015325,4.6751648e-05,5.56428262e-05,9.55745118e-05,1.01889637e-05,4.73893196e-05,606778702.0,1e-06,3e-06,tt
1.5e-05,1.2375,1.6,0.739083841,5.69669324e-05,5.56428262e-05,9.55745118e-05,1.51202363e-05,5.73073255e-05,501765343.0,1e-06,3e-06,tt
2e-05,1.2375,1.6,0.819000101,6.49340018e-05,5.56428262e-05,9.55745118e-05,2.00110141e-05,6.49604647e-05,442651234.0,1e-06,3e-06,tt
2.5e-05,1.2375,1.6,0.890494327,7.14342177e-05,5.56428262e-05,9.55745118e-05,2.48792532e-05,7.11082411e-05,404381115.0,1e-06,3e-06,tt
3e-05,1.2375,1.6,0.956246584,7.68661404e-05,5.56428262e-05,9.55745118e-05,2.9722858e-05,7.61095338e-05,377808514.0,1e-06,3e-06,tt
5e-06,1.65,1.6,0.522047239,3.24618228e-05,9.77271778e-05,0.000106019601,5.21425587e-06,3.33843548e-05,490412621.0,1e-06,3e-06,tt
1e-05,1.65,1.6,0.645015325,4.6751648e-05,9.77271778e-05,0.000106019601,1.01889637e-05,4.73893196e-05,345480987.0,1e-06,3e-06,tt
1.5e-05,1.65,1.6,0.739083841,5.69669324e-05,9.77271778e-05,0.000106019601,1.51202363e-05,5.73073255e-05,285689635.0,1e-06,3e-06,tt
2e-05,1.65,1.6,0.819000101,6.49340018e-05,9.77271778e-05,0.000106019601,2.00110141e-05,6.49604647e-05,252031894.0,1e-06,3e-06,tt
2.5e-05,1.65,1.6,0.890494327,7.14342177e-05,9.77271778e-05,0.000106019601,2.48792532e-05,7.11082411e-05,230242074.0,1e-06,3e-06,tt
3e-05,1.65,1.6,0.956246584,7.68661404e-05,9.77271778e-05,0.000106019601,2.9722858e-05,7.61095338e-05,215112459.0,1e-06,3e-06,tt
5e-06,0.4125,1.2375,0.522046798,3.24617706e-05,2.38456938e-06,2.14480714e-05,5.21424115e-06,3.33843035e-05,15545078700.0,1e-06,3e-06,tt
1e-05,0.4125,1.2375,0.645015325,4.6751648e-05,2.38456938e-06,2.14480714e-05,1.01889637e-05,4.73893196e-05,10951025000.0,1e-06,3e-06,tt
1.5e-05,0.4125,1.2375,0.739083841,5.69669324e-05,2.38456938e-06,2.14480714e-05,1.51202363e-05,5.73073255e-05,9055764180.0,1e-06,3e-06,tt
2e-05,0.4125,1.2375,0.819000101,6.49340018e-05,2.38456938e-06,2.14480714e-05,2.00110141e-05,6.49604647e-05,7988884140.0,1e-06,3e-06,tt
2.5e-05,0.4125,1.2375,0.890494327,7.14342177e-05,2.38456938e-06,2.14480714e-05,2.48792532e-05,7.11082411e-05,7298192410.0,1e-06,3e-06,tt
3e-05,0.4125,1.2375,0.956246584,7.68661404e-05,2.38456938e-06,2.14480714e-05,2.9722858e-05,7.61095338e-05,6818615230.0,1e-06,3e-06,tt
5e-06,0.825,1.2375,0.522047239,3.24618228e-05,2.09439119e-05,6.68329565e-05,5.21425587e-06,3.33843548e-05,1769882430.0,1e-06,3e-06,tt
1e-05,0.825,1.2375,0.645015325,4.6751648e-05,2.09439119e-05,6.68329565e-05,1.01889637e-05,4.73893196e-05,1246829110.0,1e-06,3e-06,tt
1.5e-05,0.825,1.2375,0.739083841,5.69669324e-05,2.09439119e-05,6.68329565e-05,1.51202363e-05,5.73073255e-05,1031044160.0,1e-06,3e-06,tt
2e-05,0.825,1.2375,0.819000101,6.49340018e-05,2.09439119e-05,6.68329565e-05,2.00110141e-05,6.49604647e-05,909574515.0,1e-06,3e-06,tt
2.5e-05,0.825,1.2375,0.890494327,7.14342177e-05,2.09439119e-05,6.68329565e-05,2.48792532e-05,7.11082411e-05,830935798.0,1e-06,3e-06,tt
3e-05,0.825,1.2375,0.956246584,7.68661404e-05,2.09439119e-05,6.68329565e-05,2.9722858e-05,7.61095338e-05,776333531.0,1e-06,3e-06,tt
5e-06,1.2375,1.2375,0.522047239,3.24618228e-05,5.49052531e-05,9.43427509e-05,5.21425587e-06,3.33843548e-05,675131423.0,1e-06,3e-06,tt
1e-05,1.2375,1.2375,0.645015325,4.6751648e-05,5.49052531e-05,9.43427509e-05,1.01889637e-05,4.73893196e-05,475609845.0,1e-06,3e-06,tt
1.5e-05,1.2375,1.2375,0.739083841,5.69669324e-05,5.49052531e-05,9.43427509e-05,1.51202363e-05,5.73073255e-05,393297484.0,1e-06,3e-06,tt
2e-05,1.2375,1.2375,0.819000101,6.49340018e-05,5.49052531e-05,9.43427509e-05,2.00110141e-05,6.49604647e-05,346962219.0,1e-06,3e-06,tt
2.5e-05,1.2375,1.2375,0.890494327,7.14342177e-05,5.49052531e-05,9.43427509e-05,2.48792532e-05,7.11082411e-05,316965047.0,1e-06,3e-06,tt
3e-05,1.2375,1.2375,0.956246584,7.68661404e-05,5.49052531e-05,9.43427509e-05,2.9722858e-05,7.61095338e-05,296136711.0,1e-06,3e-06,tt
5e-06,1.65,1.2375,0.522047239,3.24618228e-05,9.59094767e-05,0.00010034387,5.21425587e-06,3.33843548e-05,386492169.0,1e-06,3e-06,tt
1e-05,1.65,1.2375,0.645015325,4.6751648e-05,9.59094767e-05,0.00010034387,1.01889637e-05,4.73893196e-05,272272145.0,1e-06,3e-06,tt
1.5e-05,1.65,1.2375,0.739083841,5.69669324e-05,9.59094767e-05,0.00010034387,1.51202363e-05,5.73073255e-05,225150826.0,1e-06,3e-06,tt
2e-05,1.65,1.2375,0.819000101,6.49340018e-05,9.59094767e-05,0.00010034387,2.00110141e-05,6.49604647e-05,198625299.0,1e-06,3e-06,tt
2.5e-05,1.65,1.2375,0.890494327,7.14342177e-05,9.59094767e-05,0.00010034387,2.48792532e-05,7.11082411e-05,181452831.0,1e-06,3e-06,tt
3e-05,1.65,1.2375,0.956246584,7.68661404e-05,9.59094767e-05,0.00010034387,2.9722858e-05,7.61095338e-05,169529244.0,1e-06,3e-06,tt
5e-06,0.4125,0.825,0.522046798,3.24617706e-05,2.25421602e-06,2.07268098e-05,5.21424115e-06,3.33843035e-05,10962663900.0,1e-06,3e-06,tt
1e-05,0.4125,0.825,0.645015325,4.6751648e-05,2.25421602e-06,2.07268098e-05,1.01889637e-05,4.73893196e-05,7722856120.0,1e-06,3e-06,tt
1.5e-05,0.4125,0.825,0.739083841,5.69669324e-05,2.25421602e-06,2.07268098e-05,1.51202363e-05,5.73073255e-05,6386284710.0,1e-06,3e-06,tt
2e-05,0.4125,0.825,0.819000101,6.49340018e-05,2.25421602e-06,2.07268098e-05,2.00110141e-05,6.49604647e-05,5633902080.0,1e-06,3e-06,tt
2.5e-05,0.4125,0.825,0.890494327,7.14342177e-05,2.25421602e-06,2.07268098e-05,2.48792532e-05,7.11082411e-05,5146814080.0,1e-06,3e-06,tt
3e-05,0.4125,0.825,0.956246584,7.68661404e-05,2.25421602e-06,2.07268098e-05,2.9722858e-05,7.61095338e-05,4808607790.0,1e-06,3e-06,tt
5e-06,0.825,0.825,0.522047239,3.24618228e-05,2.04024007e-05,6.55028727e-05,5.21425587e-06,3.33843548e-05,1211238560.0,1e-06,3e-06,tt
1e-05,0.825,0.825,0.645015325,4.6751648e-05,2.04024007e-05,6.55028727e-05,1.01889637e-05,4.73893196e-05,853281250.0,1e-06,3e-06,tt
1.5e-05,0.825,0.825,0.739083841,5.69669324e-05,2.04024007e-05,6.55028727e-05,1.51202363e-05,5.73073255e-05,705606439.0,1e-06,3e-06,tt
2e-05,0.825,0.825,0.819000101,6.49340018e-05,2.04024007e-05,6.55028727e-05,2.00110141e-05,6.49604647e-05,622477350.0,1e-06,3e-06,tt
2.5e-05,0.825,0.825,0.890494327,7.14342177e-05,2.04024007e-05,6.55028727e-05,2.48792532e-05,7.11082411e-05,568660077.0,1e-06,3e-06,tt
3e-05,0.825,0.825,0.956246584,7.68661404e-05,2.04024007e-05,6.55028727e-05,2.9722858e-05,7.61095338e-05,531292414.0,1e-06,3e-06,tt
5e-06,1.2375,0.825,0.522047239,3.24618228e-05,5.31553911e-05,8.69401486e-05,5.21425587e-06,3.33843548e-05,464904385.0,1e-06,3e-06,tt
1e-05,1.2375,0.825,0.645015325,4.6751648e-05,5.31553911e-05,8.69401486e-05,1.01889637e-05,4.73893196e-05,327511200.0,1e-06,3e-06,tt
1.5e-05,1.2375,0.825,0.739083841,5.69669324e-05,5.31553911e-05,8.69401486e-05,1.51202363e-05,5.73073255e-05,270829825.0,1e-06,3e-06,tt
2e-05,1.2375,0.825,0.819000101,6.49340018e-05,5.31553911e-05,8.69401486e-05,2.00110141e-05,6.49604647e-05,238922752.0,1e-06,3e-06,tt
2.5e-05,1.2375,0.825,0.890494327,7.14342177e-05,5.31553911e-05,8.69401486e-05,2.48792532e-05,7.11082411e-05,218266304.0,1e-06,3e-06,tt
3e-05,1.2375,0.825,0.956246584,7.68661404e-05,5.31553911e-05,8.69401486e-05,2.9722858e-05,7.61095338e-05,203923637.0,1e-06,3e-06,tt
5e-06,1.65,0.825,0.522047239,3.24618228e-05,8.48124157e-05,6.18518602e-05,5.21425587e-06,3.33843548e-05,291374491.0,1e-06,3e-06,tt
1e-05,1.65,0.825,0.645015325,4.6751648e-05,8.48124157e-05,6.18518602e-05,1.01889637e-05,4.73893196e-05,205264593.0,1e-06,3e-06,tt
1.5e-05,1.65,0.825,0.739083841,5.69669324e-05,8.48124157e-05,6.18518602e-05,1.51202363e-05,5.73073255e-05,169740069.0,1e-06,3e-06,tt
2e-05,1.65,0.825,0.819000101,6.49340018e-05,8.48124157e-05,6.18518602e-05,2.00110141e-05,6.49604647e-05,149742608.0,1e-06,3e-06,tt
2.5e-05,1.65,0.825,0.890494327,7.14342177e-05,8.48124157e-05,6.18518602e-05,2.48792532e-05,7.11082411e-05,136796372.0,1e-06,3e-06,tt
3e-05,1.65,0.825,0.956246584,7.68661404e-05,8.48124157e-05,6.18518602e-05,2.9722858e-05,7.61095338e-05,127807239.0,1e-06,3e-06,tt
5e-06,0.4125,0.4125,0.522046798,3.24617706e-05,2.07586077e-06,1.96587565e-05,5.21424115e-06,3.33843035e-05,5952280810.0,1e-06,3e-06,tt
1e-05,0.4125,0.4125,0.645015325,4.6751648e-05,2.07586077e-06,1.96587565e-05,1.01889637e-05,4.73893196e-05,4193196920.0,1e-06,3e-06,tt
1.5e-05,0.4125,0.4125,0.739083841,5.69669324e-05,2.07586077e-06,1.96587565e-05,1.51202363e-05,5.73073255e-05,3467492980.0,1e-06,3e-06,tt
2e-05,0.4125,0.4125,0.819000101,6.49340018e-05,2.07586077e-06,1.96587565e-05,2.00110141e-05,6.49604647e-05,3058979800.0,1e-06,3e-06,tt
2.5e-05,0.4125,0.4125,0.890494327,7.14342177e-05,2.07586077e-06,1.96587565e-05,2.48792532e-05,7.11082411e-05,2794510820.0,1e-06,3e-06,tt
3e-05,0.4125,0.4125,0.956246584,7.68661404e-05,2.07586077e-06,1.96587565e-05,2.9722858e-05,7.61095338e-05,2610878550.0,1e-06,3e-06,tt
5e-06,0.825,0.4125,0.522047239,3.24618228e-05,1.88487508e-05,5.36396816e-05,5.21425587e-06,3.33843548e-05,655538787.0,1e-06,3e-06,tt
1e-05,0.825,0.4125,0.645015325,4.6751648e-05,1.88487508e-05,5.36396816e-05,1.01889637e-05,4.73893196e-05,461807421.0,1e-06,3e-06,tt
1.5e-05,0.825,0.4125,0.739083841,5.69669324e-05,1.88487508e-05,5.36396816e-05,1.51202363e-05,5.73073255e-05,381883804.0,1e-06,3e-06,tt
2e-05,0.825,0.4125,0.819000101,6.49340018e-05,1.88487508e-05,5.36396816e-05,2.00110141e-05,6.49604647e-05,336893210.0,1e-06,3e-06,tt
2.5e-05,0.825,0.4125,0.890494327,7.14342177e-05,1.88487508e-05,5.36396816e-05,2.48792532e-05,7.11082411e-05,307766570.0,1e-06,3e-06,tt
3e-05,0.825,0.4125,0.956246584,7.68661404e-05,1.88487508e-05,5.36396816e-05,2.9722858e-05,7.61095338e-05,287542682.0,1e-06,3e-06,tt
5e-06,1.2375,0.4125,0.522047239,3.24618228e-05,3.83381718e-05,3.88980842e-05,5.21425587e-06,3.33843548e-05,322292030.0,1e-06,3e-06,tt
1e-05,1.2375,0.4125,0.645015325,4.6751648e-05,3.83381718e-05,3.88980842e-05,1.01889637e-05,4.73893196e-05,227045072.0,1e-06,3e-06,tt
1.5e-05,1.2375,0.4125,0.739083841,5.69669324e-05,3.83381718e-05,3.88980842e-05,1.51202363e-05,5.73073255e-05,187751067.0,1e-06,3e-06,tt
2e-05,1.2375,0.4125,0.819000101,6.49340018e-05,3.83381718e-05,3.88980842e-05,2.00110141e-05,6.49604647e-05,165631689.0,1e-06,3e-06,tt
2.5e-05,1.2375,0.4125,0.890494327,7.14342177e-05,3.83381718e-05,3.88980842e-05,2.48792532e-05,7.11082411e-05,151311737.0,1e-06,3e-06,tt
3e-05,1.2375,0.4125,0.956246584,7.68661404e-05,3.83381718e-05,3.88980842e-05,2.9722858e-05,7.61095338e-05,141368774.0,1e-06,3e-06,tt
5e-06,1.65,0.4125,0.522047239,3.24618228e-05,5.09436122e-05,2.29118215e-05,5.21425587e-06,3.33843548e-05,242544388.0,1e-06,3e-06,tt
1e-05,1.65,0.4125,0.645015325,4.6751648e-05,5.09436122e-05,2.29118215e-05,1.01889637e-05,4.73893196e-05,170865249.0,1e-06,3e-06,tt
1.5e-05,1.65,0.4125,0.739083841,5.69669324e-05,5.09436122e-05,2.29118215e-05,1.51202363e-05,5.73073255e-05,141294116.0,1e-06,3e-06,tt
2e-05,1.65,0.4125,0.819000101,6.49340018e-05,5.09436122e-05,2.29118215e-05,2.00110141e-05,6.49604647e-05,124647937.0,1e-06,3e-06,tt
2.5e-05,1.65,0.4125,0.890494327,7.14342177e-05,5.09436122e-05,2.29118215e-05,2.48792532e-05,7.11082411e-05,113871300.0,1e-06,3e-06,tt
3e-05,1.65,0.4125,0.956246584,7.68661404e-05,5.09436122e-05,2.29118215e-05,2.9722858e-05,7.61095338e-05,106388615.0,1e-06,3e-06,tt
5e-06,0.4125,0.05,0.522046798,3.24617706e-05,9.29698078e-07,6.33090849e-06,5.21424115e-06,3.33843035e-05,1610963690.0,1e-06,3e-06,tt
1e-05,0.4125,0.05,0.645015325,4.6751648e-05,9.29698078e-07,6.33090849e-06,1.01889637e-05,4.73893196e-05,1134873870.0,1e-06,3e-06,tt
1.5e-05,0.4125,0.05,0.739083841,5.69669324e-05,9.29698078e-07,6.33090849e-06,1.51202363e-05,5.73073255e-05,938464676.0,1e-06,3e-06,tt
2e-05,0.4125,0.05,0.819000101,6.49340018e-05,9.29698078e-07,6.33090849e-06,2.00110141e-05,6.49604647e-05,827902032.0,1e-06,3e-06,tt
2.5e-05,0.4125,0.05,0.890494327,7.14342177e-05,9.29698078e-07,6.33090849e-06,2.48792532e-05,7.11082411e-05,756324441.0,1e-06,3e-06,tt
3e-05,0.4125,0.05,0.956246584,7.68661404e-05,9.29698078e-07,6.33090849e-06,2.9722858e-05,7.61095338e-05,706625019.0,1e-06,3e-06,tt
5e-06,0.825,0.05,0.522047239,3.24618228e-05,3.66038078e-06,6.00311091e-06,5.21425587e-06,3.33843548e-05,409167142.0,1e-06,3e-06,tt
1e-05,0.825,0.05,0.645015325,4.6751648e-05,3.66038078e-06,6.00311091e-06,1.01889637e-05,4.73893196e-05,288245984.0,1e-06,3e-06,tt
1.5e-05,0.825,0.05,0.739083841,5.69669324e-05,3.66038078e-06,6.00311091e-06,1.51202363e-05,5.73073255e-05,238360121.0,1e-06,3e-06,tt
2e-05,0.825,0.05,0.819000101,6.49340018e-05,3.66038078e-06,6.00311091e-06,2.00110141e-05,6.49604647e-05,210278377.0,1e-06,3e-06,tt
2.5e-05,0.825,0.05,0.890494327,7.14342177e-05,3.66038078e-06,6.00311091e-06,2.48792532e-05,7.11082411e-05,192098424.0,1e-06,3e-06,tt
3e-05,0.825,0.05,0.956246584,7.68661404e-05,3.66038078e-06,6.00311091e-06,2.9722858e-05,7.61095338e-05,179475295.0,1e-06,3e-06,tt
5e-06,1.2375,0.05,0.522047239,3.24618228e-05,5.67520301e-06,3.77913647e-06,5.21425587e-06,3.33843548e-05,263903783.0,1e-06,3e-06,tt
1e-05,1.2375,0.05,0.645015325,4.6751648e-05,5.67520301e-06,3.77913647e-06,1.01889637e-05,4.73893196e-05,185912302.0,1e-06,3e-06,tt
1.5e-05,1.2375,0.05,0.739083841,5.69669324e-05,5.67520301e-06,3.77913647e-06,1.51202363e-05,5.73073255e-05,153737021.0,1e-06,3e-06,tt
2e-05,1.2375,0.05,0.819000101,6.49340018e-05,5.67520301e-06,3.77913647e-06,2.00110141e-05,6.49604647e-05,135624915.0,1e-06,3e-06,tt
2.5e-05,1.2375,0.05,0.890494327,7.14342177e-05,5.67520301e-06,3.77913647e-06,2.48792532e-05,7.11082411e-05,123899247.0,1e-06,3e-06,tt
3e-05,1.2375,0.05,0.956246584,7.68661404e-05,5.67520301e-06,3.77913647e-06,2.9722858e-05,7.61095338e-05,115757607.0,1e-06,3e-06,tt
5e-06,1.65,0.05,0.522047239,3.24618228e-05,6.85408162e-06,2.02974241e-06,5.21425587e-06,3.33843548e-05,218513234.0,1e-06,3e-06,tt
1e-05,1.65,0.05,0.645015325,4.6751648e-05,6.85408162e-06,2.02974241e-06,1.01889637e-05,4.73893196e-05,153936022.0,1e-06,3e-06,tt
1.5e-05,1.65,0.05,0.739083841,5.69669324e-05,6.85408162e-06,2.02974241e-06,1.51202363e-05,5.73073255e-05,127294779.0,1e-06,3e-06,tt
2e-05,1.65,0.05,0.819000101,6.49340018e-05,6.85408162e-06,2.02974241e-06,2.00110141e-05,6.49604647e-05,112297894.0,1e-06,3e-06,tt
2.5e-05,1.65,0.05,0.890494327,7.14342177e-05,6.85408162e-06,2.02974241e-06,2.48792532e-05,7.11082411e-05,102589000.0,1e-06,3e-06,tt
3e-05,1.65,0.05,0.956246584,7.68661404e-05,6.85408162e-06,2.02974241e-06,2.9722858e-05,7.61095338e-05,95847694.6,1e-06,3e-06,tt
5e-06,0.4125,1.65,0.401762263,4.83337845e-05,6.67181697e-06,5.75169984e-05,5.46945584e-06,5.11510571e-05,4834874510.0,2.5e-06,3e-06,tt
1e-05,0.4125,1.65,0.482679059,7.21517336e-05,6.67181697e-06,5.75169984e-05,1.05549273e-05,7.47020126e-05,3310606150.0,2.5e-06,3e-06,tt
1.5e-05,0.4125,1.65,0.542793123,9.01901255e-05,6.67181697e-06,5.75169984e-05,1.55795024e-05,9.24516428e-05,2675008630.0,2.5e-06,3e-06,tt
2e-05,0.4125,1.65,0.592662419,0.000105014022,6.67181697e-06,5.75169984e-05,2.05535626e-05,0.000106984135,2311641270.0,2.5e-06,3e-06,tt
