i-sweep,v(VG),v(VD),v(Vbias),gmrp,Ipeak_unit,gmron_unit,Ibias_unit,gmbias_unit,Ron_Gm_unit,width,length,corner
5e-06,0.4125,1.65,0.451128604,4.33762333e-05,4.36461524e-06,4.03031349e-05,5.43730321e-06,4.5779445e-05,8257858860.0,1e-06,1.5e-06,tt
1e-05,0.4125,1.65,0.541359267,6.41524982e-05,4.36461524e-06,4.03031349e-05,1.04893229e-05,6.62421485e-05,5706943450.0,1e-06,1.5e-06,tt
1.5e-05,0.4125,1.65,0.608907993,7.96266587e-05,4.36461524e-06,4.03031349e-05,1.54774427e-05,8.13704993e-05,4645912200.0,1e-06,1.5e-06,tt
2e-05,0.4125,1.65,0.66531677,9.21399456e-05,4.36461524e-06,4.03031349e-05,2.04128538e-05,9.35259419e-05,4042089160.0,1e-06,1.5e-06,tt
2.5e-05,0.4125,1.65,0.715085472,0.000102721466,4.36461524e-06,4.03031349e-05,2.53238778e-05,0.000103739156,3644141800.0,1e-06,1.5e-06,tt
3e-05,0.4125,1.65,0.760284179,0.00011188386,4.36461524e-06,4.03031349e-05,3.0213099e-05,0.000112520901,3359733090.0,1e-06,1.5e-06,tt
5e-06,0.825,1.65,0.451128419,4.33761913e-05,4.00984454e-05,0.000129475072,5.43729472e-06,4.57794034e-05,898848049.0,1e-06,1.5e-06,tt
1e-05,0.825,1.65,0.541359267,6.41524982e-05,4.00984454e-05,0.000129475072,1.04893229e-05,6.62421485e-05,621186486.0,1e-06,1.5e-06,tt
1.5e-05,0.825,1.65,0.608907993,7.96266587e-05,4.00984454e-05,0.000129475072,1.54774427e-05,8.13704993e-05,505695895.0,1e-06,1.5e-06,tt
2e-05,0.825,1.65,0.66531677,9.21399456e-05,4.00984454e-05,0.000129475072,2.04128538e-05,9.35259419e-05,439971270.0,1e-06,1.5e-06,tt
2.5e-05,0.825,1.65,0.715085472,0.000102721466,4.00984454e-05,0.000129475072,2.53238778e-05,0.000103739156,396655698.0,1e-06,1.5e-06,tt
3e-05,0.825,1.65,0.760284179,0.00011188386,4.00984454e-05,0.000129475072,3.0213099e-05,0.000112520901,365698524.0,1e-06,1.5e-06,tt
5e-06,1.2375,1.65,0.451128419,4.33761913e-05,0.000105670915,0.00018141703,5.43729472e-06,4.57794034e-05,341081644.0,1e-06,1.5e-06,tt
1e-05,1.2375,1.65,0.541359267,6.41524982e-05,0.000105670915,0.00018141703,1.04893229e-05,6.62421485e-05,235718716.0,1e-06,1.5e-06,tt
1.5e-05,1.2375,1.65,0.608907993,7.96266587e-05,0.000105670915,0.00018141703,1.54774427e-05,8.13704993e-05,191894044.0,1e-06,1.5e-06,tt
2e-05,1.2375,1.65,0.66531677,9.21399456e-05,0.000105670915,0.00018141703,2.04128538e-05,9.35259419e-05,166953830.0,1e-06,1.5e-06,tt
2.5e-05,1.2375,1.65,0.715085472,0.000102721466,0.000105670915,0.00018141703,2.53238778e-05,0.000103739156,150517073.0,1e-06,1.5e-06,tt
3e-05,1.2375,1.65,0.760284179,0.00011188386,0.000105670915,0.00018141703,3.0213099e-05,0.000112520901,138769900.0,1e-06,1.5e-06,tt
5e-06,1.65,1.65,0.451128419,4.33761913e-05,0.000184931976,0.000198187516,5.43729472e-06,4.57794034e-05,194895497.0,1e-06,1.5e-06,tt
1e-05,1.65,1.65,0.541359267,6.41524982e-05,0.000184931976,0.000198187516,1.04893229e-05,6.62421485e-05,134690673.0,1e-06,1.5e-06,tt
1.5e-05,1.65,1.65,0.608907993,7.96266587e-05,0.000184931976,0.000198187516,1.54774427e-05,8.13704993e-05,109649070.0,1e-06,1.5e-06,tt
2e-05,1.65,1.65,0.66531677,9.21399456e-05,0.000184931976,0.000198187516,2.04128538e-05,9.35259419e-05,95398126.1,1e-06,1.5e-06,tt
2.5e-05,1.65,1.65,0.715085472,0.000102721466,0.000184931976,0.000198187516,2.53238778e-05,0.000103739156,86006093.7,1e-06,1.5e-06,tt
3e-05,1.65,1.65,0.760284179,0.00011188386,0.000184931976,0.000198187516,3.0213099e-05,0.000112520901,79293709.0,1e-06,1.5e-06,tt
5e-06,0.4125,1.6,0.451128604,4.33762333e-05,4.33812937e-06,4.01556793e-05,5.43730321e-06,4.5779445e-05,8056510190.0,1e-06,1.5e-06,tt
1e-05,0.4125,1.6,0.541359267,6.41524982e-05,4.33812937e-06,4.01556793e-05,1.04893229e-05,6.62421485e-05,5567792910.0,1e-06,1.5e-06,tt
1.5e-05,0.4125,1.6,0.608907993,7.96266587e-05,4.33812937e-06,4.01556793e-05,1.54774427e-05,8.13704993e-05,4532632450.0,1e-06,1.5e-06,tt
2e-05,0.4125,1.6,0.66531677,9.21399456e-05,4.33812937e-06,4.01556793e-05,2.04128538e-05,9.35259419e-05,3943532220.0,1e-06,1.5e-06,tt
2.5e-05,0.4125,1.6,0.715085472,0.000102721466,4.33812937e-06,4.01556793e-05,2.53238778e-05,0.000103739156,3555287880.0,1e-06,1.5e-06,tt
3e-05,0.4125,1.6,0.760284179,0.00011188386,4.33812937e-06,4.01556793e-05,3.0213099e-05,0.000112520901,3277813820.0,1e-06,1.5e-06,tt
5e-06,0.825,1.6,0.451128419,4.33761913e-05,3.99971222e-05,0.000129259947,5.43729472e-06,4.57794034e-05,873818246.0,1e-06,1.5e-06,tt
1e-05,0.825,1.6,0.541359267,6.41524982e-05,3.99971222e-05,0.000129259947,1.04893229e-05,6.62421485e-05,603888595.0,1e-06,1.5e-06,tt
1.5e-05,0.825,1.6,0.608907993,7.96266587e-05,3.99971222e-05,0.000129259947,1.54774427e-05,8.13704993e-05,491614017.0,1e-06,1.5e-06,tt
2e-05,0.825,1.6,0.66531677,9.21399456e-05,3.99971222e-05,0.000129259947,2.04128538e-05,9.35259419e-05,427719595.0,1e-06,1.5e-06,tt
2.5e-05,0.825,1.6,0.715085472,0.000102721466,3.99971222e-05,0.000129259947,2.53238778e-05,0.000103739156,385610211.0,1e-06,1.5e-06,tt
3e-05,0.825,1.6,0.760284179,0.00011188386,3.99971222e-05,0.000129259947,3.0213099e-05,0.000112520901,355515087.0,1e-06,1.5e-06,tt
5e-06,1.2375,1.6,0.451128419,4.33761913e-05,0.000105465275,0.000181116199,5.43729472e-06,4.57794034e-05,331390738.0,1e-06,1.5e-06,tt
1e-05,1.2375,1.6,0.541359267,6.41524982e-05,0.000105465275,0.000181116199,1.04893229e-05,6.62421485e-05,229021410.0,1e-06,1.5e-06,tt
1.5e-05,1.2375,1.6,0.608907993,7.96266587e-05,0.000105465275,0.000181116199,1.54774427e-05,8.13704993e-05,186441897.0,1e-06,1.5e-06,tt
2e-05,1.2375,1.6,0.66531677,9.21399456e-05,0.000105465275,0.000181116199,2.04128538e-05,9.35259419e-05,162210291.0,1e-06,1.5e-06,tt
2.5e-05,1.2375,1.6,0.715085472,0.000102721466,0.000105465275,0.000181116199,2.53238778e-05,0.000103739156,146240540.0,1e-06,1.5e-06,tt
3e-05,1.2375,1.6,0.760284179,0.00011188386,0.000105465275,0.000181116199,3.0213099e-05,0.000112520901,134827131.0,1e-06,1.5e-06,tt
5e-06,1.65,1.6,0.451128419,4.33761913e-05,0.000184546542,0.000197509909,5.43729472e-06,4.57794034e-05,189384286.0,1e-06,1.5e-06,tt
1e-05,1.65,1.6,0.541359267,6.41524982e-05,0.000184546542,0.000197509909,1.04893229e-05,6.62421485e-05,130881921.0,1e-06,1.5e-06,tt
1.5e-05,1.65,1.6,0.608907993,7.96266587e-05,0.000184546542,0.000197509909,1.54774427e-05,8.13704993e-05,106548438.0,1e-06,1.5e-06,tt
2e-05,1.65,1.6,0.66531677,9.21399456e-05,0.000184546542,0.000197509909,2.04128538e-05,9.35259419e-05,92700479.2,1e-06,1.5e-06,tt
2.5e-05,1.65,1.6,0.715085472,0.000102721466,0.000184546542,0.000197509909,2.53238778e-05,0.000103739156,83574032.6,1e-06,1.5e-06,tt
3e-05,1.65,1.6,0.760284179,0.00011188386,0.000184546542,0.000197509909,3.0213099e-05,0.000112520901,77051459.2,1e-06,1.5e-06,tt
5e-06,0.4125,1.2375,0.451128604,4.33762333e-05,4.12766124e-06,3.8970979e-05,5.43730321e-06,4.5779445e-05,6548934350.0,1e-06,1.5e-06,tt
1e-05,0.4125,1.2375,0.541359267,6.41524982e-05,4.12766124e-06,3.8970979e-05,1.04893229e-05,6.62421485e-05,4525918720.0,1e-06,1.5e-06,tt
1.5e-05,0.4125,1.2375,0.608907993,7.96266587e-05,4.12766124e-06,3.8970979e-05,1.54774427e-05,8.13704993e-05,3684462830.0,1e-06,1.5e-06,tt
2e-05,0.4125,1.2375,0.66531677,9.21399456e-05,4.12766124e-06,3.8970979e-05,2.04128538e-05,9.35259419e-05,3205598080.0,1e-06,1.5e-06,tt
2.5e-05,0.4125,1.2375,0.715085472,0.000102721466,4.12766124e-06,3.8970979e-05,2.53238778e-05,0.000103739156,2890004030.0,1e-06,1.5e-06,tt
3e-05,0.4125,1.2375,0.760284179,0.00011188386,4.12766124e-06,3.8970979e-05,3.0213099e-05,0.000112520901,2664452350.0,1e-06,1.5e-06,tt
5e-06,0.825,1.2375,0.451128419,4.33761913e-05,3.91624663e-05,0.000127411377,5.43729472e-06,4.57794034e-05,690247822.0,1e-06,1.5e-06,tt
1e-05,0.825,1.2375,0.541359267,6.41524982e-05,3.91624663e-05,0.000127411377,1.04893229e-05,6.62421485e-05,477024587.0,1e-06,1.5e-06,tt
1.5e-05,0.825,1.2375,0.608907993,7.96266587e-05,3.91624663e-05,0.000127411377,1.54774427e-05,8.13704993e-05,388336483.0,1e-06,1.5e-06,tt
2e-05,0.825,1.2375,0.66531677,9.21399456e-05,3.91624663e-05,0.000127411377,2.04128538e-05,9.35259419e-05,337864905.0,1e-06,1.5e-06,tt
2.5e-05,0.825,1.2375,0.715085472,0.000102721466,3.91624663e-05,0.000127411377,2.53238778e-05,0.000103739156,304601798.0,1e-06,1.5e-06,tt
3e-05,0.825,1.2375,0.760284179,0.00011188386,3.91624663e-05,0.000127411377,3.0213099e-05,0.000112520901,280829012.0,1e-06,1.5e-06,tt
5e-06,1.2375,1.2375,0.451128419,4.33761913e-05,0.000103670954,0.000178040474,5.43729472e-06,4.57794034e-05,260746196.0,1e-06,1.5e-06,tt
1e-05,1.2375,1.2375,0.541359267,6.41524982e-05,0.000103670954,0.000178040474,1.04893229e-05,6.62421485e-05,180199550.0,1e-06,1.5e-06,tt
1.5e-05,1.2375,1.2375,0.608907993,7.96266587e-05,0.000103670954,0.000178040474,1.54774427e-05,8.13704993e-05,146696965.0,1e-06,1.5e-06,tt
2e-05,1.2375,1.2375,0.66531677,9.21399456e-05,0.000103670954,0.000178040474,2.04128538e-05,9.35259419e-05,127630955.0,1e-06,1.5e-06,tt
2.5e-05,1.2375,1.2375,0.715085472,0.000102721466,0.000103670954,0.000178040474,2.53238778e-05,0.000103739156,115065572.0,1e-06,1.5e-06,tt
3e-05,1.2375,1.2375,0.760284179,0.00011188386,0.000103670954,0.000178040474,3.0213099e-05,0.000112520901,106085227.0,1e-06,1.5e-06,tt
5e-06,1.65,1.2375,0.451128419,4.33761913e-05,0.000180321353,0.000186346587,5.43729472e-06,4.57794034e-05,149909074.0,1e-06,1.5e-06,tt
1e-05,1.65,1.2375,0.541359267,6.41524982e-05,0.000180321353,0.000186346587,1.04893229e-05,6.62421485e-05,103600927.0,1e-06,1.5e-06,tt
1.5e-05,1.65,1.2375,0.608907993,7.96266587e-05,0.000180321353,0.000186346587,1.54774427e-05,8.13704993e-05,84339509.3,1e-06,1.5e-06,tt
2e-05,1.65,1.2375,0.66531677,9.21399456e-05,0.000180321353,0.000186346587,2.04128538e-05,9.35259419e-05,73378015.1,1e-06,1.5e-06,tt
2.5e-05,1.65,1.2375,0.715085472,0.000102721466,0.000180321353,0.000186346587,2.53238778e-05,0.000103739156,66153882.7,1e-06,1.5e-06,tt
3e-05,1.65,1.2375,0.760284179,0.00011188386,0.000180321353,0.000186346587,3.0213099e-05,0.000112520901,60990872.8,1e-06,1.5e-06,tt
5e-06,0.4125,0.825,0.451128604,4.33762333e-05,3.83449127e-06,3.72519879e-05,5.43730321e-06,4.5779445e-05,4699759910.0,1e-06,1.5e-06,tt
1e-05,0.4125,0.825,0.541359267,6.41524982e-05,3.83449127e-06,3.72519879e-05,1.04893229e-05,6.62421485e-05,3247968330.0,1e-06,1.5e-06,tt
1.5e-05,0.4125,0.825,0.608907993,7.96266587e-05,3.83449127e-06,3.72519879e-05,1.54774427e-05,8.13704993e-05,2644108150.0,1e-06,1.5e-06,tt
2e-05,0.4125,0.825,0.66531677,9.21399456e-05,3.83449127e-06,3.72519879e-05,2.04128538e-05,9.35259419e-05,2300456920.0,1e-06,1.5e-06,tt
2.5e-05,0.4125,0.825,0.715085472,0.000102721466,3.83449127e-06,3.72519879e-05,2.53238778e-05,0.000103739156,2073974840.0,1e-06,1.5e-06,tt
3e-05,0.4125,0.825,0.760284179,0.00011188386,3.83449127e-06,3.72519879e-05,3.0213099e-05,0.000112520901,1912110530.0,1e-06,1.5e-06,tt
5e-06,0.825,0.825,0.451128419,4.33761913e-05,3.78781595e-05,0.000124173377,5.43729472e-06,4.57794034e-05,475767697.0,1e-06,1.5e-06,tt
1e-05,0.825,0.825,0.541359267,6.41524982e-05,3.78781595e-05,0.000124173377,1.04893229e-05,6.62421485e-05,328799138.0,1e-06,1.5e-06,tt
1.5e-05,0.825,0.825,0.608907993,7.96266587e-05,3.78781595e-05,0.000124173377,1.54774427e-05,8.13704993e-05,267669014.0,1e-06,1.5e-06,tt
2e-05,0.825,0.825,0.66531677,9.21399456e-05,3.78781595e-05,0.000124173377,2.04128538e-05,9.35259419e-05,232880428.0,1e-06,1.5e-06,tt
2.5e-05,0.825,0.825,0.715085472,0.000102721466,3.78781595e-05,0.000124173377,2.53238778e-05,0.000103739156,209953137.0,1e-06,1.5e-06,tt
3e-05,0.825,0.825,0.760284179,0.00011188386,3.78781595e-05,0.000124173377,3.0213099e-05,0.000112520901,193567249.0,1e-06,1.5e-06,tt
5e-06,1.2375,0.825,0.451128419,4.33761913e-05,9.97169315e-05,0.000164001351,5.43729472e-06,4.57794034e-05,180723619.0,1e-06,1.5e-06,tt
1e-05,1.2375,0.825,0.541359267,6.41524982e-05,9.97169315e-05,0.000164001351,1.04893229e-05,6.62421485e-05,124896605.0,1e-06,1.5e-06,tt
1.5e-05,1.2375,0.825,0.608907993,7.96266587e-05,9.97169315e-05,0.000164001351,1.54774427e-05,8.13704993e-05,101675909.0,1e-06,1.5e-06,tt
2e-05,1.2375,0.825,0.66531677,9.21399456e-05,9.97169315e-05,0.000164001351,2.04128538e-05,9.35259419e-05,88461225.6,1e-06,1.5e-06,tt
2.5e-05,1.2375,0.825,0.715085472,0.000102721466,9.97169315e-05,0.000164001351,2.53238778e-05,0.000103739156,79752137.4,1e-06,1.5e-06,tt
3e-05,1.2375,0.825,0.760284179,0.00011188386,9.97169315e-05,0.000164001351,3.0213099e-05,0.000112520901,73527845.6,1e-06,1.5e-06,tt
5e-06,1.65,0.825,0.451128419,4.33761913e-05,0.000161200092,0.000124197114,5.43729472e-06,4.57794034e-05,111794010.0,1e-06,1.5e-06,tt
1e-05,1.65,0.825,0.541359267,6.41524982e-05,0.000161200092,0.000124197114,1.04893229e-05,6.62421485e-05,77259919.7,1e-06,1.5e-06,tt
1.5e-05,1.65,0.825,0.608907993,7.96266587e-05,0.000161200092,0.000124197114,1.54774427e-05,8.13704993e-05,62895805.2,1e-06,1.5e-06,tt
2e-05,1.65,0.825,0.66531677,9.21399456e-05,0.000161200092,0.000124197114,2.04128538e-05,9.35259419e-05,54721320.8,1e-06,1.5e-06,tt
2.5e-05,1.65,0.825,0.715085472,0.000102721466,0.000161200092,0.000124197114,2.53238778e-05,0.000103739156,49333956.9,1e-06,1.5e-06,tt
3e-05,1.65,0.825,0.760284179,0.00011188386,0.000161200092,0.000124197114,3.0213099e-05,0.000112520901,45483665.9,1e-06,1.5e-06,tt
5e-06,0.4125,0.4125,0.451128604,4.33762333e-05,3.44295419e-06,3.47712418e-05,5.43730321e-06,4.5779445e-05,2617111260.0,1e-06,1.5e-06,tt
1e-05,0.4125,0.4125,0.541359267,6.41524982e-05,3.44295419e-06,3.47712418e-05,1.04893229e-05,6.62421485e-05,1808665680.0,1e-06,1.5e-06,tt
1.5e-05,0.4125,0.4125,0.608907993,7.96266587e-05,3.44295419e-06,3.47712418e-05,1.54774427e-05,8.13704993e-05,1472399730.0,1e-06,1.5e-06,tt
2e-05,0.4125,0.4125,0.66531677,9.21399456e-05,3.44295419e-06,3.47712418e-05,2.04128538e-05,9.35259419e-05,1281033890.0,1e-06,1.5e-06,tt
2.5e-05,0.4125,0.4125,0.715085472,0.000102721466,3.44295419e-06,3.47712418e-05,2.53238778e-05,0.000103739156,1154914930.0,1e-06,1.5e-06,tt
3e-05,0.4125,0.4125,0.760284179,0.00011188386,3.44295419e-06,3.47712418e-05,3.0213099e-05,0.000112520901,1064779070.0,1e-06,1.5e-06,tt
5e-06,0.825,0.4125,0.451128419,4.33761913e-05,3.48092129e-05,0.000104308575,5.43729472e-06,4.57794034e-05,258856825.0,1e-06,1.5e-06,tt
1e-05,0.825,0.4125,0.541359267,6.41524982e-05,3.48092129e-05,0.000104308575,1.04893229e-05,6.62421485e-05,178893821.0,1e-06,1.5e-06,tt
1.5e-05,0.825,0.4125,0.608907993,7.96266587e-05,3.48092129e-05,0.000104308575,1.54774427e-05,8.13704993e-05,145633997.0,1e-06,1.5e-06,tt
2e-05,0.825,0.4125,0.66531677,9.21399456e-05,3.48092129e-05,0.000104308575,2.04128538e-05,9.35259419e-05,126706139.0,1e-06,1.5e-06,tt
2.5e-05,0.825,0.4125,0.715085472,0.000102721466,3.48092129e-05,0.000104308575,2.53238778e-05,0.000103739156,114231805.0,1e-06,1.5e-06,tt
3e-05,0.825,0.4125,0.760284179,0.00011188386,3.48092129e-05,0.000104308575,3.0213099e-05,0.000112520901,105316531.0,1e-06,1.5e-06,tt
5e-06,1.2375,0.4125,0.451128419,4.33761913e-05,7.35420257e-05,7.77883041e-05,5.43729472e-06,4.57794034e-05,122523173.0,1e-06,1.5e-06,tt
1e-05,1.2375,0.4125,0.541359267,6.41524982e-05,7.35420257e-05,7.77883041e-05,1.04893229e-05,6.62421485e-05,84674756.2,1e-06,1.5e-06,tt
1.5e-05,1.2375,0.4125,0.608907993,7.96266587e-05,7.35420257e-05,7.77883041e-05,1.54774427e-05,8.13704993e-05,68932080.1,1e-06,1.5e-06,tt
2e-05,1.2375,0.4125,0.66531677,9.21399456e-05,7.35420257e-05,7.77883041e-05,2.04128538e-05,9.35259419e-05,59973069.1,1e-06,1.5e-06,tt
2.5e-05,1.2375,0.4125,0.715085472,0.000102721466,7.35420257e-05,7.77883041e-05,2.53238778e-05,0.000103739156,54068665.8,1e-06,1.5e-06,tt
3e-05,1.2375,0.4125,0.760284179,0.00011188386,7.35420257e-05,7.77883041e-05,3.0213099e-05,0.000112520901,49848852.2,1e-06,1.5e-06,tt
5e-06,1.65,0.4125,0.451128419,4.33761913e-05,9.88056138e-05,4.6115159e-05,5.43729472e-06,4.57794034e-05,91195246.9,1e-06,1.5e-06,tt
1e-05,1.65,0.4125,0.541359267,6.41524982e-05,9.88056138e-05,4.6115159e-05,1.04893229e-05,6.62421485e-05,63024284.3,1e-06,1.5e-06,tt
1.5e-05,1.65,0.4125,0.608907993,7.96266587e-05,9.88056138e-05,4.6115159e-05,1.54774427e-05,8.13704993e-05,51306850.0,1e-06,1.5e-06,tt
2e-05,1.65,0.4125,0.66531677,9.21399456e-05,9.88056138e-05,4.6115159e-05,2.04128538e-05,9.35259419e-05,44638566.7,1e-06,1.5e-06,tt
2.5e-05,1.65,0.4125,0.715085472,0.000102721466,9.88056138e-05,4.6115159e-05,2.53238778e-05,0.000103739156,40243859.2,1e-06,1.5e-06,tt
3e-05,1.65,0.4125,0.760284179,0.00011188386,9.88056138e-05,4.6115159e-05,3.0213099e-05,0.000112520901,37103008.9,1e-06,1.5e-06,tt
5e-06,0.4125,0.05,0.451128604,4.33762333e-05,1.59287978e-06,1.20491904e-05,5.43730321e-06,4.5779445e-05,685672107.0,1e-06,1.5e-06,tt
1e-05,0.4125,0.05,0.541359267,6.41524982e-05,1.59287978e-06,1.20491904e-05,1.04893229e-05,6.62421485e-05,473862778.0,1e-06,1.5e-06,tt
1.5e-05,0.4125,0.05,0.608907993,7.96266587e-05,1.59287978e-06,1.20491904e-05,1.54774427e-05,8.13704993e-05,385762516.0,1e-06,1.5e-06,tt
2e-05,0.4125,0.05,0.66531677,9.21399456e-05,1.59287978e-06,1.20491904e-05,2.04128538e-05,9.35259419e-05,335625473.0,1e-06,1.5e-06,tt
2.5e-05,0.4125,0.05,0.715085472,0.000102721466,1.59287978e-06,1.20491904e-05,2.53238778e-05,0.000103739156,302582840.0,1e-06,1.5e-06,tt
3e-05,0.4125,0.05,0.760284179,0.00011188386,1.59287978e-06,1.20491904e-05,3.0213099e-05,0.000112520901,278967624.0,1e-06,1.5e-06,tt
5e-06,0.825,0.05,0.451128419,4.33761913e-05,6.97744074e-06,1.19869431e-05,5.43729472e-06,4.57794034e-05,156532211.0,1e-06,1.5e-06,tt
1e-05,0.825,0.05,0.541359267,6.41524982e-05,6.97744074e-06,1.19869431e-05,1.04893229e-05,6.62421485e-05,108178122.0,1e-06,1.5e-06,tt
1.5e-05,0.825,0.05,0.608907993,7.96266587e-05,6.97744074e-06,1.19869431e-05,1.54774427e-05,8.13704993e-05,88065715.3,1e-06,1.5e-06,tt
2e-05,0.825,0.05,0.66531677,9.21399456e-05,6.97744074e-06,1.19869431e-05,2.04128538e-05,9.35259419e-05,76619931.1,1e-06,1.5e-06,tt
2.5e-05,0.825,0.05,0.715085472,0.000102721466,6.97744074e-06,1.19869431e-05,2.53238778e-05,0.000103739156,69076629.1,1e-06,1.5e-06,tt
3e-05,0.825,0.05,0.760284179,0.00011188386,6.97744074e-06,1.19869431e-05,3.0213099e-05,0.000112520901,63685512.2,1e-06,1.5e-06,tt
5e-06,1.2375,0.05,0.451128419,4.33761913e-05,1.10071676e-05,7.57468343e-06,5.43729472e-06,4.57794034e-05,99225728.2,1e-06,1.5e-06,tt
1e-05,1.2375,0.05,0.541359267,6.41524982e-05,1.10071676e-05,7.57468343e-06,1.04893229e-05,6.62421485e-05,68574083.8,1e-06,1.5e-06,tt
1.5e-05,1.2375,0.05,0.608907993,7.96266587e-05,1.10071676e-05,7.57468343e-06,1.54774427e-05,8.13704993e-05,55824834.4,1e-06,1.5e-06,tt
2e-05,1.2375,0.05,0.66531677,9.21399456e-05,1.10071676e-05,7.57468343e-06,2.04128538e-05,9.35259419e-05,48569354.7,1e-06,1.5e-06,tt
2.5e-05,1.2375,0.05,0.715085472,0.000102721466,1.10071676e-05,7.57468343e-06,2.53238778e-05,0.000103739156,43787657.5,1e-06,1.5e-06,tt
3e-05,1.2375,0.05,0.760284179,0.00011188386,1.10071676e-05,7.57468343e-06,3.0213099e-05,0.000112520901,40370229.8,1e-06,1.5e-06,tt
5e-06,1.65,0.05,0.451128419,4.33761913e-05,1.33740596e-05,4.11642977e-06,5.43729472e-06,4.57794034e-05,81665123.4,1e-06,1.5e-06,tt
1e-05,1.65,0.05,0.541359267,6.41524982e-05,1.33740596e-05,4.11642977e-06,1.04893229e-05,6.62421485e-05,56438094.4,1e-06,1.5e-06,tt
1.5e-05,1.65,0.05,0.608907993,7.96266587e-05,1.33740596e-05,4.11642977e-06,1.54774427e-05,8.13704993e-05,45945160.3,1e-06,1.5e-06,tt
2e-05,1.65,0.05,0.66531677,9.21399456e-05,1.33740596e-05,4.11642977e-06,2.04128538e-05,9.35259419e-05,39973728.7,1e-06,1.5e-06,tt
2.5e-05,1.65,0.05,0.715085472,0.000102721466,1.33740596e-05,4.11642977e-06,2.53238778e-05,0.000103739156,36038278.7,1e-06,1.5e-06,tt
3e-05,1.65,0.05,0.760284179,0.00011188386,1.33740596e-05,4.11642977e-06,3.0213099e-05,0.000112520901,33225654.9,1e-06,1.5e-06,tt
5e-06,0.4125,1.65,0.358588877,6.2566401e-05,1.17948824e-05,0.000105895143,5.85437447e-06,6.92159383e-05,2021083320.0,2.5e-06,1.5e-06,tt
1e-05,0.4125,1.65,0.41988163,9.5702479e-05,1.17948824e-05,0.000105895143,1.10903439e-05,0.000102112705,1369968400.0,2.5e-06,1.5e-06,tt
1.5e-05,0.4125,1.65,0.464592932,0.000121365258,1.17948824e-05,0.000105895143,1.62197088e-05,0.000127452303,1097596320.0,2.5e-06,1.5e-06,tt
