i-sweep,v(VG),v(VD),v(Vbias),gmrp,Ipeak_unit,gmron_unit,Ibias_unit,gmbias_unit,Ron_Gm_unit,width,length,corner
5e-06,0.4125,1.65,0.547963333,3.45915704e-05,1.83259077e-06,1.93355843e-05,5.2153637e-06,3.55524404e-05,25324975400.0,1e-06,2.5e-06,ss
1e-05,0.4125,1.65,0.662993713,5.01156189e-05,1.83259077e-06,1.93355843e-05,1.0185993e-05,5.07633468e-05,17736511400.0,1e-06,2.5e-06,ss
1.5e-05,0.4125,1.65,0.750570348,6.13142047e-05,1.83259077e-06,1.93355843e-05,1.51141017e-05,6.16426171e-05,14606204600.0,1e-06,2.5e-06,ss
2e-05,0.4125,1.65,0.824697079,7.01150623e-05,1.83259077e-06,1.93355843e-05,2.00021688e-05,7.01165195e-05,12840977900.0,1e-06,2.5e-06,ss
2.5e-05,0.4125,1.65,0.890819327,7.73486764e-05,1.83259077e-06,1.93355843e-05,2.48697998e-05,7.70028412e-05,11692616300.0,1e-06,2.5e-06,ss
3e-05,0.4125,1.65,0.951474809,8.34375818e-05,1.83259077e-06,1.93355843e-05,2.97164536e-05,8.27037318e-05,10886627000.0,1e-06,2.5e-06,ss
5e-06,0.825,1.65,0.547963821,3.45916369e-05,2.10401984e-05,7.2624054e-05,5.21538107e-06,3.55525059e-05,2205788640.0,1e-06,2.5e-06,ss
1e-05,0.825,1.65,0.662993713,5.01156189e-05,2.10401984e-05,7.2624054e-05,1.0185993e-05,5.07633468e-05,1544841280.0,1e-06,2.5e-06,ss
1.5e-05,0.825,1.65,0.750570348,6.13142047e-05,2.10401984e-05,7.2624054e-05,1.51141017e-05,6.16426171e-05,1272193120.0,1e-06,2.5e-06,ss
2e-05,0.825,1.65,0.824697079,7.01150623e-05,2.10401984e-05,7.2624054e-05,2.00021688e-05,7.01165195e-05,1118442760.0,1e-06,2.5e-06,ss
2.5e-05,0.825,1.65,0.890819327,7.73486764e-05,2.10401984e-05,7.2624054e-05,2.48697998e-05,7.70028412e-05,1018421040.0,1e-06,2.5e-06,ss
3e-05,0.825,1.65,0.951474809,8.34375818e-05,2.10401984e-05,7.2624054e-05,2.97164536e-05,8.27037318e-05,948219771.0,1e-06,2.5e-06,ss
5e-06,1.2375,1.65,0.547963821,3.45916369e-05,5.88415977e-05,0.000106583208,5.21538107e-06,3.55525059e-05,788731653.0,1e-06,2.5e-06,ss
1e-05,1.2375,1.65,0.662993713,5.01156189e-05,5.88415977e-05,0.000106583208,1.0185993e-05,5.07633468e-05,552394366.0,1e-06,2.5e-06,ss
1.5e-05,1.2375,1.65,0.750570348,6.13142047e-05,5.88415977e-05,0.000106583208,1.51141017e-05,6.16426171e-05,454902599.0,1e-06,2.5e-06,ss
2e-05,1.2375,1.65,0.824697079,7.01150623e-05,5.88415977e-05,0.000106583208,2.00021688e-05,7.01165195e-05,399925538.0,1e-06,2.5e-06,ss
2.5e-05,1.2375,1.65,0.890819327,7.73486764e-05,5.88415977e-05,0.000106583208,2.48697998e-05,7.70028412e-05,364160417.0,1e-06,2.5e-06,ss
3e-05,1.2375,1.65,0.951474809,8.34375818e-05,5.88415977e-05,0.000106583208,2.97164536e-05,8.27037318e-05,339058301.0,1e-06,2.5e-06,ss
5e-06,1.65,1.65,0.547963821,3.45916369e-05,0.000106069548,0.000119562441,5.21538107e-06,3.55525059e-05,437545285.0,1e-06,2.5e-06,ss
1e-05,1.65,1.65,0.662993713,5.01156189e-05,0.000106069548,0.000119562441,1.0185993e-05,5.07633468e-05,306438253.0,1e-06,2.5e-06,ss
1.5e-05,1.65,1.65,0.750570348,6.13142047e-05,0.000106069548,0.000119562441,1.51141017e-05,6.16426171e-05,252355141.0,1e-06,2.5e-06,ss
2e-05,1.65,1.65,0.824697079,7.01150623e-05,0.000106069548,0.000119562441,2.00021688e-05,7.01165195e-05,221856867.0,1e-06,2.5e-06,ss
2.5e-05,1.65,1.65,0.890819327,7.73486764e-05,0.000106069548,0.000119562441,2.48697998e-05,7.70028412e-05,202016329.0,1e-06,2.5e-06,ss
3e-05,1.65,1.65,0.951474809,8.34375818e-05,0.000106069548,0.000119562441,2.97164536e-05,8.27037318e-05,188091045.0,1e-06,2.5e-06,ss
5e-06,0.4125,1.6,0.547963333,3.45915704e-05,1.82162728e-06,1.92653933e-05,5.2153637e-06,3.55524404e-05,24705351900.0,1e-06,2.5e-06,ss
1e-05,0.4125,1.6,0.662993713,5.01156189e-05,1.82162728e-06,1.92653933e-05,1.0185993e-05,5.07633468e-05,17302554000.0,1e-06,2.5e-06,ss
1.5e-05,0.4125,1.6,0.750570348,6.13142047e-05,1.82162728e-06,1.92653933e-05,1.51141017e-05,6.16426171e-05,14248836100.0,1e-06,2.5e-06,ss
2e-05,0.4125,1.6,0.824697079,7.01150623e-05,1.82162728e-06,1.92653933e-05,2.00021688e-05,7.01165195e-05,12526799000.0,1e-06,2.5e-06,ss
2.5e-05,0.4125,1.6,0.890819327,7.73486764e-05,1.82162728e-06,1.92653933e-05,2.48697998e-05,7.70028412e-05,11406534300.0,1e-06,2.5e-06,ss
3e-05,0.4125,1.6,0.951474809,8.34375818e-05,1.82162728e-06,1.92653933e-05,2.97164536e-05,8.27037318e-05,10620265000.0,1e-06,2.5e-06,ss
5e-06,0.825,1.6,0.547963821,3.45916369e-05,2.09936525e-05,7.25216856e-05,5.21538107e-06,3.55525059e-05,2143688920.0,1e-06,2.5e-06,ss
1e-05,0.825,1.6,0.662993713,5.01156189e-05,2.09936525e-05,7.25216856e-05,1.0185993e-05,5.07633468e-05,1501349250.0,1e-06,2.5e-06,ss
1.5e-05,0.825,1.6,0.750570348,6.13142047e-05,2.09936525e-05,7.25216856e-05,1.51141017e-05,6.16426171e-05,1236376980.0,1e-06,2.5e-06,ss
2e-05,0.825,1.6,0.824697079,7.01150623e-05,2.09936525e-05,7.25216856e-05,2.00021688e-05,7.01165195e-05,1086955160.0,1e-06,2.5e-06,ss
2.5e-05,0.825,1.6,0.890819327,7.73486764e-05,2.09936525e-05,7.25216856e-05,2.48697998e-05,7.70028412e-05,989749361.0,1e-06,2.5e-06,ss
3e-05,0.825,1.6,0.951474809,8.34375818e-05,2.09936525e-05,7.25216856e-05,2.97164536e-05,8.27037318e-05,921524473.0,1e-06,2.5e-06,ss
5e-06,1.2375,1.6,0.547963821,3.45916369e-05,5.87459445e-05,0.000106445095,5.21538107e-06,3.55525059e-05,766076032.0,1e-06,2.5e-06,ss
1e-05,1.2375,1.6,0.662993713,5.01156189e-05,5.87459445e-05,0.000106445095,1.0185993e-05,5.07633468e-05,536527325.0,1e-06,2.5e-06,ss
1.5e-05,1.2375,1.6,0.750570348,6.13142047e-05,5.87459445e-05,0.000106445095,1.51141017e-05,6.16426171e-05,441835924.0,1e-06,2.5e-06,ss
2e-05,1.2375,1.6,0.824697079,7.01150623e-05,5.87459445e-05,0.000106445095,2.00021688e-05,7.01165195e-05,388438029.0,1e-06,2.5e-06,ss
2.5e-05,1.2375,1.6,0.890819327,7.73486764e-05,5.87459445e-05,0.000106445095,2.48697998e-05,7.70028412e-05,353700230.0,1e-06,2.5e-06,ss
3e-05,1.2375,1.6,0.951474809,8.34375818e-05,5.87459445e-05,0.000106445095,2.97164536e-05,8.27037318e-05,329319150.0,1e-06,2.5e-06,ss
5e-06,1.65,1.6,0.547963821,3.45916369e-05,0.000105897647,0.000119291725,5.21538107e-06,3.55525059e-05,424975069.0,1e-06,2.5e-06,ss
1e-05,1.65,1.6,0.662993713,5.01156189e-05,0.000105897647,0.000119291725,1.0185993e-05,5.07633468e-05,297634605.0,1e-06,2.5e-06,ss
1.5e-05,1.65,1.6,0.750570348,6.13142047e-05,0.000105897647,0.000119291725,1.51141017e-05,6.16426171e-05,245105243.0,1e-06,2.5e-06,ss
2e-05,1.65,1.6,0.824697079,7.01150623e-05,0.000105897647,0.000119291725,2.00021688e-05,7.01165195e-05,215483152.0,1e-06,2.5e-06,ss
2.5e-05,1.65,1.6,0.890819327,7.73486764e-05,0.000105897647,0.000119291725,2.48697998e-05,7.70028412e-05,196212613.0,1e-06,2.5e-06,ss
3e-05,1.65,1.6,0.951474809,8.34375818e-05,0.000105897647,0.000119291725,2.97164536e-05,8.27037318e-05,182687387.0,1e-06,2.5e-06,ss
5e-06,0.4125,1.2375,0.547963333,3.45915704e-05,1.73454489e-06,1.87032159e-05,5.2153637e-06,3.55524404e-05,20067360300.0,1e-06,2.5e-06,ss
1e-05,0.4125,1.2375,0.662993713,5.01156189e-05,1.73454489e-06,1.87032159e-05,1.0185993e-05,5.07633468e-05,14054306400.0,1e-06,2.5e-06,ss
1.5e-05,0.4125,1.2375,0.750570348,6.13142047e-05,1.73454489e-06,1.87032159e-05,1.51141017e-05,6.16426171e-05,11573869900.0,1e-06,2.5e-06,ss
2e-05,0.4125,1.2375,0.824697079,7.01150623e-05,1.73454489e-06,1.87032159e-05,2.00021688e-05,7.01165195e-05,10175114700.0,1e-06,2.5e-06,ss
2.5e-05,0.4125,1.2375,0.890819327,7.73486764e-05,1.73454489e-06,1.87032159e-05,2.48697998e-05,7.70028412e-05,9265159830.0,1e-06,2.5e-06,ss
3e-05,0.4125,1.2375,0.951474809,8.34375818e-05,1.73454489e-06,1.87032159e-05,2.97164536e-05,8.27037318e-05,8626498650.0,1e-06,2.5e-06,ss
5e-06,0.825,1.2375,0.547963821,3.45916369e-05,2.06103831e-05,7.16452435e-05,5.21538107e-06,3.55525059e-05,1688841630.0,1e-06,2.5e-06,ss
1e-05,0.825,1.2375,0.662993713,5.01156189e-05,2.06103831e-05,7.16452435e-05,1.0185993e-05,5.07633468e-05,1182793410.0,1e-06,2.5e-06,ss
1.5e-05,0.825,1.2375,0.750570348,6.13142047e-05,2.06103831e-05,7.16452435e-05,1.51141017e-05,6.16426171e-05,974042875.0,1e-06,2.5e-06,ss
2e-05,0.825,1.2375,0.824697079,7.01150623e-05,2.06103831e-05,7.16452435e-05,2.00021688e-05,7.01165195e-05,856325335.0,1e-06,2.5e-06,ss
2.5e-05,0.825,1.2375,0.890819327,7.73486764e-05,2.06103831e-05,7.16452435e-05,2.48697998e-05,7.70028412e-05,779744632.0,1e-06,2.5e-06,ss
3e-05,0.825,1.2375,0.951474809,8.34375818e-05,2.06103831e-05,7.16452435e-05,2.97164536e-05,8.27037318e-05,725995680.0,1e-06,2.5e-06,ss
5e-06,1.2375,1.2375,0.547963821,3.45916369e-05,5.79201991e-05,0.000105098632,5.21538107e-06,3.55525059e-05,600959139.0,1e-06,2.5e-06,ss
1e-05,1.2375,1.2375,0.662993713,5.01156189e-05,5.79201991e-05,0.000105098632,1.0185993e-05,5.07633468e-05,420886421.0,1e-06,2.5e-06,ss
1.5e-05,1.2375,1.2375,0.750570348,6.13142047e-05,5.79201991e-05,0.000105098632,1.51141017e-05,6.16426171e-05,346604417.0,1e-06,2.5e-06,ss
2e-05,1.2375,1.2375,0.824697079,7.01150623e-05,5.79201991e-05,0.000105098632,2.00021688e-05,7.01165195e-05,304715686.0,1e-06,2.5e-06,ss
2.5e-05,1.2375,1.2375,0.890819327,7.73486764e-05,5.79201991e-05,0.000105098632,2.48697998e-05,7.70028412e-05,277465130.0,1e-06,2.5e-06,ss
3e-05,1.2375,1.2375,0.951474809,8.34375818e-05,5.79201991e-05,0.000105098632,2.97164536e-05,8.27037318e-05,258339048.0,1e-06,2.5e-06,ss
5e-06,1.65,1.2375,0.547963821,3.45916369e-05,0.000104067923,0.00011455083,5.21538107e-06,3.55525059e-05,334470718.0,1e-06,2.5e-06,ss
1e-05,1.65,1.2375,0.662993713,5.01156189e-05,0.000104067923,0.00011455083,1.0185993e-05,5.07633468e-05,234249176.0,1e-06,2.5e-06,ss
1.5e-05,1.65,1.2375,0.750570348,6.13142047e-05,0.000104067923,0.00011455083,1.51141017e-05,6.16426171e-05,192906673.0,1e-06,2.5e-06,ss
2e-05,1.65,1.2375,0.824697079,7.01150623e-05,0.000104067923,0.00011455083,2.00021688e-05,7.01165195e-05,169593018.0,1e-06,2.5e-06,ss
2.5e-05,1.65,1.2375,0.890819327,7.73486764e-05,0.000104067923,0.00011455083,2.48697998e-05,7.70028412e-05,154426408.0,1e-06,2.5e-06,ss
3e-05,1.65,1.2375,0.951474809,8.34375818e-05,0.000104067923,0.00011455083,2.97164536e-05,8.27037318e-05,143781567.0,1e-06,2.5e-06,ss
5e-06,0.4125,0.825,0.547963333,3.45915704e-05,1.61339558e-06,1.7892539e-05,5.2153637e-06,3.55524404e-05,14382807500.0,1e-06,2.5e-06,ss
1e-05,0.4125,0.825,0.662993713,5.01156189e-05,1.61339558e-06,1.7892539e-05,1.0185993e-05,5.07633468e-05,10073092900.0,1e-06,2.5e-06,ss
1.5e-05,0.4125,0.825,0.750570348,6.13142047e-05,1.61339558e-06,1.7892539e-05,1.51141017e-05,6.16426171e-05,8295298460.0,1e-06,2.5e-06,ss
2e-05,0.4125,0.825,0.824697079,7.01150623e-05,1.61339558e-06,1.7892539e-05,2.00021688e-05,7.01165195e-05,7292773660.0,1e-06,2.5e-06,ss
2.5e-05,0.4125,0.825,0.890819327,7.73486764e-05,1.61339558e-06,1.7892539e-05,2.48697998e-05,7.70028412e-05,6640584930.0,1e-06,2.5e-06,ss
3e-05,0.4125,0.825,0.951474809,8.34375818e-05,1.61339558e-06,1.7892539e-05,2.97164536e-05,8.27037318e-05,6182839580.0,1e-06,2.5e-06,ss
5e-06,0.825,0.825,0.547963821,3.45916369e-05,2.00234136e-05,7.01495732e-05,5.21538107e-06,3.55525059e-05,1158899070.0,1e-06,2.5e-06,ss
1e-05,0.825,0.825,0.662993713,5.01156189e-05,2.00234136e-05,7.01495732e-05,1.0185993e-05,5.07633468e-05,811644000.0,1e-06,2.5e-06,ss
1.5e-05,0.825,0.825,0.750570348,6.13142047e-05,2.00234136e-05,7.01495732e-05,1.51141017e-05,6.16426171e-05,668397414.0,1e-06,2.5e-06,ss
2e-05,0.825,0.825,0.824697079,7.01150623e-05,2.00234136e-05,7.01495732e-05,2.00021688e-05,7.01165195e-05,587618526.0,1e-06,2.5e-06,ss
2.5e-05,0.825,0.825,0.890819327,7.73486764e-05,2.00234136e-05,7.01495732e-05,2.48697998e-05,7.70028412e-05,535068125.0,1e-06,2.5e-06,ss
3e-05,0.825,0.825,0.951474809,8.34375818e-05,2.00234136e-05,7.01495732e-05,2.97164536e-05,8.27037318e-05,498185088.0,1e-06,2.5e-06,ss
5e-06,1.2375,0.825,0.547963821,3.45916369e-05,5.62096343e-05,9.91667053e-05,5.21538107e-06,3.55525059e-05,412831637.0,1e-06,2.5e-06,ss
1e-05,1.2375,0.825,0.662993713,5.01156189e-05,5.62096343e-05,9.91667053e-05,1.0185993e-05,5.07633468e-05,289129857.0,1e-06,2.5e-06,ss
1.5e-05,1.2375,0.825,0.750570348,6.13142047e-05,5.62096343e-05,9.91667053e-05,1.51141017e-05,6.16426171e-05,238101494.0,1e-06,2.5e-06,ss
2e-05,1.2375,0.825,0.824697079,7.01150623e-05,5.62096343e-05,9.91667053e-05,2.00021688e-05,7.01165195e-05,209325838.0,1e-06,2.5e-06,ss
2.5e-05,1.2375,0.825,0.890819327,7.73486764e-05,5.62096343e-05,9.91667053e-05,2.48697998e-05,7.70028412e-05,190605944.0,1e-06,2.5e-06,ss
3e-05,1.2375,0.825,0.951474809,8.34375818e-05,5.62096343e-05,9.91667053e-05,2.97164536e-05,8.27037318e-05,177467194.0,1e-06,2.5e-06,ss
5e-06,1.65,0.825,0.547963821,3.45916369e-05,9.42301207e-05,7.77194205e-05,5.21538107e-06,3.55525059e-05,246260062.0,1e-06,2.5e-06,ss
1e-05,1.65,0.825,0.662993713,5.01156189e-05,9.42301207e-05,7.77194205e-05,1.0185993e-05,5.07633468e-05,172470155.0,1e-06,2.5e-06,ss
1.5e-05,1.65,0.825,0.750570348,6.13142047e-05,9.42301207e-05,7.77194205e-05,1.51141017e-05,6.16426171e-05,142030996.0,1e-06,2.5e-06,ss
2e-05,1.65,0.825,0.824697079,7.01150623e-05,9.42301207e-05,7.77194205e-05,2.00021688e-05,7.01165195e-05,124865900.0,1e-06,2.5e-06,ss
2.5e-05,1.65,0.825,0.890819327,7.73486764e-05,9.42301207e-05,7.77194205e-05,2.48697998e-05,7.70028412e-05,113699211.0,1e-06,2.5e-06,ss
3e-05,1.65,0.825,0.951474809,8.34375818e-05,9.42301207e-05,7.77194205e-05,2.97164536e-05,8.27037318e-05,105861756.0,1e-06,2.5e-06,ss
5e-06,0.4125,0.4125,0.547963333,3.45915704e-05,1.45210104e-06,1.67367859e-05,5.2153637e-06,3.55524404e-05,7990200900.0,1e-06,2.5e-06,ss
1e-05,0.4125,0.4125,0.662993713,5.01156189e-05,1.45210104e-06,1.67367859e-05,1.0185993e-05,5.07633468e-05,5595989210.0,1e-06,2.5e-06,ss
1.5e-05,0.4125,0.4125,0.750570348,6.13142047e-05,1.45210104e-06,1.67367859e-05,1.51141017e-05,6.16426171e-05,4608356270.0,1e-06,2.5e-06,ss
2e-05,0.4125,0.4125,0.824697079,7.01150623e-05,1.45210104e-06,1.67367859e-05,2.00021688e-05,7.01165195e-05,4051415320.0,1e-06,2.5e-06,ss
2.5e-05,0.4125,0.4125,0.890819327,7.73486764e-05,1.45210104e-06,1.67367859e-05,2.48697998e-05,7.70028412e-05,3689099480.0,1e-06,2.5e-06,ss
3e-05,0.4125,0.4125,0.951474809,8.34375818e-05,1.45210104e-06,1.67367859e-05,2.97164536e-05,8.27037318e-05,3434804390.0,1e-06,2.5e-06,ss
5e-06,0.825,0.4125,0.547963821,3.45916369e-05,1.87341303e-05,6.15410678e-05,5.21538107e-06,3.55525059e-05,619327266.0,1e-06,2.5e-06,ss
1e-05,0.825,0.4125,0.662993713,5.01156189e-05,1.87341303e-05,6.15410678e-05,1.0185993e-05,5.07633468e-05,433750681.0,1e-06,2.5e-06,ss
1.5e-05,0.825,0.4125,0.750570348,6.13142047e-05,1.87341303e-05,6.15410678e-05,1.51141017e-05,6.16426171e-05,357198271.0,1e-06,2.5e-06,ss
2e-05,0.825,0.4125,0.824697079,7.01150623e-05,1.87341303e-05,6.15410678e-05,2.00021688e-05,7.01165195e-05,314029225.0,1e-06,2.5e-06,ss
2.5e-05,0.825,0.4125,0.890819327,7.73486764e-05,1.87341303e-05,6.15410678e-05,2.48697998e-05,7.70028412e-05,285945764.0,1e-06,2.5e-06,ss
3e-05,0.825,0.4125,0.951474809,8.34375818e-05,1.87341303e-05,6.15410678e-05,2.97164536e-05,8.27037318e-05,266235100.0,1e-06,2.5e-06,ss
5e-06,1.2375,0.4125,0.547963821,3.45916369e-05,4.2270438e-05,4.83898861e-05,5.21538107e-06,3.55525059e-05,274483971.0,1e-06,2.5e-06,ss
1e-05,1.2375,0.4125,0.662993713,5.01156189e-05,4.2270438e-05,4.83898861e-05,1.0185993e-05,5.07633468e-05,192236990.0,1e-06,2.5e-06,ss
1.5e-05,1.2375,0.4125,0.750570348,6.13142047e-05,4.2270438e-05,4.83898861e-05,1.51141017e-05,6.16426171e-05,158309193.0,1e-06,2.5e-06,ss
2e-05,1.2375,0.4125,0.824697079,7.01150623e-05,4.2270438e-05,4.83898861e-05,2.00021688e-05,7.01165195e-05,139176802.0,1e-06,2.5e-06,ss
2.5e-05,1.2375,0.4125,0.890819327,7.73486764e-05,4.2270438e-05,4.83898861e-05,2.48697998e-05,7.70028412e-05,126730298.0,1e-06,2.5e-06,ss
3e-05,1.2375,0.4125,0.951474809,8.34375818e-05,4.2270438e-05,4.83898861e-05,2.97164536e-05,8.27037318e-05,117994591.0,1e-06,2.5e-06,ss
5e-06,1.65,0.4125,0.547963821,3.45916369e-05,5.82259376e-05,2.95834828e-05,5.21538107e-06,3.55525059e-05,199267855.0,1e-06,2.5e-06,ss
1e-05,1.65,0.4125,0.662993713,5.01156189e-05,5.82259376e-05,2.95834828e-05,1.0185993e-05,5.07633468e-05,139558796.0,1e-06,2.5e-06,ss
1.5e-05,1.65,0.4125,0.750570348,6.13142047e-05,5.82259376e-05,2.95834828e-05,1.51141017e-05,6.16426171e-05,114928144.0,1e-06,2.5e-06,ss
2e-05,1.65,0.4125,0.824697079,7.01150623e-05,5.82259376e-05,2.95834828e-05,2.00021688e-05,7.01165195e-05,101038552.0,1e-06,2.5e-06,ss
2.5e-05,1.65,0.4125,0.890819327,7.73486764e-05,5.82259376e-05,2.95834828e-05,2.48697998e-05,7.70028412e-05,92002729.7,1e-06,2.5e-06,ss
3e-05,1.65,0.4125,0.951474809,8.34375818e-05,5.82259376e-05,2.95834828e-05,2.97164536e-05,8.27037318e-05,85660845.4,1e-06,2.5e-06,ss
5e-06,0.4125,0.05,0.547963333,3.45915704e-05,7.34923725e-07,6.60461273e-06,5.2153637e-06,3.55524404e-05,1913631540.0,1e-06,2.5e-06,ss
1e-05,0.4125,0.05,0.662993713,5.01156189e-05,7.34923725e-07,6.60461273e-06,1.0185993e-05,5.07633468e-05,1340224300.0,1e-06,2.5e-06,ss
1.5e-05,0.4125,0.05,0.750570348,6.13142047e-05,7.34923725e-07,6.60461273e-06,1.51141017e-05,6.16426171e-05,1103688880.0,1e-06,2.5e-06,ss
2e-05,0.4125,0.05,0.824697079,7.01150623e-05,7.34923725e-07,6.60461273e-06,2.00021688e-05,7.01165195e-05,970303028.0,1e-06,2.5e-06,ss
2.5e-05,0.4125,0.05,0.890819327,7.73486764e-05,7.34923725e-07,6.60461273e-06,2.48697998e-05,7.70028412e-05,883529362.0,1e-06,2.5e-06,ss
3e-05,0.4125,0.05,0.951474809,8.34375818e-05,7.34923725e-07,6.60461273e-06,2.97164536e-05,8.27037318e-05,822626376.0,1e-06,2.5e-06,ss
5e-06,0.825,0.05,0.547963821,3.45916369e-05,3.90672384e-06,7.32376014e-06,5.21538107e-06,3.55525059e-05,359987213.0,1e-06,2.5e-06,ss
1e-05,0.825,0.05,0.662993713,5.01156189e-05,3.90672384e-06,7.32376014e-06,1.0185993e-05,5.07633468e-05,252119853.0,1e-06,2.5e-06,ss
1.5e-05,0.825,0.05,0.750570348,6.13142047e-05,3.90672384e-06,7.32376014e-06,1.51141017e-05,6.16426171e-05,207623364.0,1e-06,2.5e-06,ss
2e-05,0.825,0.05,0.824697079,7.01150623e-05,3.90672384e-06,7.32376014e-06,2.00021688e-05,7.01165195e-05,182531130.0,1e-06,2.5e-06,ss
2.5e-05,0.825,0.05,0.890819327,7.73486764e-05,3.90672384e-06,7.32376014e-06,2.48697998e-05,7.70028412e-05,166207471.0,1e-06,2.5e-06,ss
3e-05,0.825,0.05,0.951474809,8.34375818e-05,3.90672384e-06,7.32376014e-06,2.97164536e-05,8.27037318e-05,154750544.0,1e-06,2.5e-06,ss
5e-06,1.2375,0.05,0.547963821,3.45916369e-05,6.41705398e-06,4.81140661e-06,5.21538107e-06,3.55525059e-05,219161414.0,1e-06,2.5e-06,ss
1e-05,1.2375,0.05,0.662993713,5.01156189e-05,6.41705398e-06,4.81140661e-06,1.0185993e-05,5.07633468e-05,153491406.0,1e-06,2.5e-06,ss
1.5e-05,1.2375,0.05,0.750570348,6.13142047e-05,6.41705398e-06,4.81140661e-06,1.51141017e-05,6.16426171e-05,126401795.0,1e-06,2.5e-06,ss
2e-05,1.2375,0.05,0.824697079,7.01150623e-05,6.41705398e-06,4.81140661e-06,2.00021688e-05,7.01165195e-05,111125560.0,1e-06,2.5e-06,ss
2.5e-05,1.2375,0.05,0.890819327,7.73486764e-05,6.41705398e-06,4.81140661e-06,2.48697998e-05,7.70028412e-05,101187662.0,1e-06,2.5e-06,ss
3e-05,1.2375,0.05,0.951474809,8.34375818e-05,6.41705398e-06,4.81140661e-06,2.97164536e-05,8.27037318e-05,94212646.9,1e-06,2.5e-06,ss
5e-06,1.65,0.05,0.547963821,3.45916369e-05,7.9399747e-06,2.68892609e-06,5.21538107e-06,3.55525059e-05,177125328.0,1e-06,2.5e-06,ss
1e-05,1.65,0.05,0.662993713,5.01156189e-05,7.9399747e-06,2.68892609e-06,1.0185993e-05,5.07633468e-05,124051105.0,1e-06,2.5e-06,ss
1.5e-05,1.65,0.05,0.750570348,6.13142047e-05,7.9399747e-06,2.68892609e-06,1.51141017e-05,6.16426171e-05,102157397.0,1e-06,2.5e-06,ss
2e-05,1.65,0.05,0.824697079,7.01150623e-05,7.9399747e-06,2.68892609e-06,2.00021688e-05,7.01165195e-05,89811207.5,1e-06,2.5e-06,ss
2.5e-05,1.65,0.05,0.890819327,7.73486764e-05,7.9399747e-06,2.68892609e-06,2.48697998e-05,7.70028412e-05,81779440.7,1e-06,2.5e-06,ss
3e-05,1.65,0.05,0.951474809,8.34375818e-05,7.9399747e-06,2.68892609e-06,2.97164536e-05,8.27037318e-05,76142262.9,1e-06,2.5e-06,ss
5e-06,0.4125,1.65,0.430045909,5.11703545e-05,5.20341796e-06,5.24223025e-05,5.4858532e-06,5.4199214e-05,5850624760.0,2.5e-06,2.5e-06,ss
1e-05,0.4125,1.65,0.506228296,7.67957553e-05,5.20341796e-06,5.24223025e-05,1.0570855e-05,7.95164476e-05,3987844940.0,2.5e-06,2.5e-06,ss
