i-sweep,v(VG),v(VD),v(Vbias),gmrp,Ipeak_unit,gmron_unit,Ibias_unit,gmbias_unit,Ron_Gm_unit,width,length,corner
5e-06,0.4125,1.65,0.403572515,4.40471329e-05,6.62960791e-06,5.24276314e-05,5.51128339e-06,4.69466984e-05,5301405760.0,1e-06,1.5e-06,ff
1e-05,0.4125,1.65,0.4922493,6.5188069e-05,6.62960791e-06,5.24276314e-05,1.05978572e-05,6.78218746e-05,3669664080.0,1e-06,1.5e-06,ff
1.5e-05,0.4125,1.65,0.558590776,8.09541294e-05,6.62960791e-06,5.24276314e-05,1.5612187e-05,8.3272149e-05,2988796370.0,1e-06,1.5e-06,ff
2e-05,0.4125,1.65,0.613958076,9.37243581e-05,6.62960791e-06,5.24276314e-05,2.05694258e-05,9.57072633e-05,2600466130.0,1e-06,1.5e-06,ff
2.5e-05,0.4125,1.65,0.662779907,0.000104543834,6.62960791e-06,5.24276314e-05,2.54997121e-05,0.000106176954,2344044430.0,1e-06,1.5e-06,ff
3e-05,0.4125,1.65,0.707092382,0.000113931914,6.62960791e-06,5.24276314e-05,3.0406392e-05,0.000115199947,2160448010.0,1e-06,1.5e-06,ff
5e-06,0.825,1.65,0.403572515,4.40471329e-05,4.78607495e-05,0.000142597773,5.51128339e-06,4.69466984e-05,734343735.0,1e-06,1.5e-06,ff
1e-05,0.825,1.65,0.4922493,6.5188069e-05,4.78607495e-05,0.000142597773,1.05978572e-05,6.78218746e-05,508317029.0,1e-06,1.5e-06,ff
1.5e-05,0.825,1.65,0.558590776,8.09541294e-05,4.78607495e-05,0.000142597773,1.5612187e-05,8.3272149e-05,414004133.0,1e-06,1.5e-06,ff
2e-05,0.825,1.65,0.613958076,9.37243582e-05,4.78607495e-05,0.000142597773,2.05694258e-05,9.57072633e-05,360213140.0,1e-06,1.5e-06,ff
2.5e-05,0.825,1.65,0.662779907,0.000104543834,4.78607495e-05,0.000142597773,2.54997121e-05,0.000106176954,324693944.0,1e-06,1.5e-06,ff
3e-05,0.825,1.65,0.707092382,0.000113931914,4.78607495e-05,0.000142597773,3.0406392e-05,0.000115199947,299262410.0,1e-06,1.5e-06,ff
5e-06,1.2375,1.65,0.403572515,4.40471329e-05,0.000118417519,0.000192479356,5.51128339e-06,4.69466984e-05,296799341.0,1e-06,1.5e-06,ff
1e-05,1.2375,1.65,0.4922493,6.5188069e-05,0.000118417519,0.000192479356,1.05978572e-05,6.78218746e-05,205446240.0,1e-06,1.5e-06,ff
1.5e-05,1.2375,1.65,0.558590776,8.09541294e-05,0.000118417519,0.000192479356,1.5612187e-05,8.3272149e-05,167327844.0,1e-06,1.5e-06,ff
2e-05,1.2375,1.65,0.613958076,9.37243582e-05,0.000118417519,0.000192479356,2.05694258e-05,9.57072633e-05,145587165.0,1e-06,1.5e-06,ff
2.5e-05,1.2375,1.65,0.662779907,0.000104543834,0.000118417519,0.000192479356,2.54997121e-05,0.000106176954,131231389.0,1e-06,1.5e-06,ff
3e-05,1.2375,1.65,0.707092382,0.000113931914,0.000118417519,0.000192479356,3.0406392e-05,0.000115199947,120952739.0,1e-06,1.5e-06,ff
5e-06,1.65,1.65,0.403572515,4.40471329e-05,0.000201831843,0.000207099327,5.51128339e-06,4.69466984e-05,174136256.0,1e-06,1.5e-06,ff
1e-05,1.65,1.65,0.4922493,6.5188069e-05,0.000201831843,0.000207099327,1.05978572e-05,6.78218746e-05,120538135.0,1e-06,1.5e-06,ff
1.5e-05,1.65,1.65,0.558590776,8.09541294e-05,0.000201831843,0.000207099327,1.5612187e-05,8.3272149e-05,98173547.8,1e-06,1.5e-06,ff
2e-05,1.65,1.65,0.613958076,9.37243582e-05,0.000201831843,0.000207099327,2.05694258e-05,9.57072633e-05,85417992.4,1e-06,1.5e-06,ff
2.5e-05,1.65,1.65,0.662779907,0.000104543834,0.000201831843,0.000207099327,2.54997121e-05,0.000106176954,76995261.4,1e-06,1.5e-06,ff
3e-05,1.65,1.65,0.707092382,0.000113931914,0.000201831843,0.000207099327,3.0406392e-05,0.000115199947,70964635.8,1e-06,1.5e-06,ff
5e-06,0.4125,1.6,0.403572515,4.40471329e-05,6.59549487e-06,5.22658367e-05,5.51128339e-06,4.69466984e-05,5167345980.0,1e-06,1.5e-06,ff
1e-05,0.4125,1.6,0.4922493,6.5188069e-05,6.59549487e-06,5.22658367e-05,1.05978572e-05,6.78218746e-05,3576867110.0,1e-06,1.5e-06,ff
1.5e-05,0.4125,1.6,0.558590776,8.09541294e-05,6.59549487e-06,5.22658367e-05,1.5612187e-05,8.3272149e-05,2913216920.0,1e-06,1.5e-06,ff
2e-05,0.4125,1.6,0.613958076,9.37243581e-05,6.59549487e-06,5.22658367e-05,2.05694258e-05,9.57072633e-05,2534706610.0,1e-06,1.5e-06,ff
2.5e-05,0.4125,1.6,0.662779907,0.000104543834,6.59549487e-06,5.22658367e-05,2.54997121e-05,0.000106176954,2284769200.0,1e-06,1.5e-06,ff
3e-05,0.4125,1.6,0.707092382,0.000113931914,6.59549487e-06,5.22658367e-05,3.0406392e-05,0.000115199947,2105815490.0,1e-06,1.5e-06,ff
5e-06,0.825,1.6,0.403572515,4.40471329e-05,4.77450178e-05,0.000142363672,5.51128339e-06,4.69466984e-05,713816969.0,1e-06,1.5e-06,ff
1e-05,0.825,1.6,0.4922493,6.5188069e-05,4.77450178e-05,0.000142363672,1.05978572e-05,6.78218746e-05,494108282.0,1e-06,1.5e-06,ff
1.5e-05,0.825,1.6,0.558590776,8.09541294e-05,4.77450178e-05,0.000142363672,1.5612187e-05,8.3272149e-05,402431670.0,1e-06,1.5e-06,ff
2e-05,0.825,1.6,0.613958076,9.37243582e-05,4.77450178e-05,0.000142363672,2.05694258e-05,9.57072633e-05,350144271.0,1e-06,1.5e-06,ff
2.5e-05,0.825,1.6,0.662779907,0.000104543834,4.77450178e-05,0.000142363672,2.54997121e-05,0.000106176954,315617927.0,1e-06,1.5e-06,ff
3e-05,0.825,1.6,0.707092382,0.000113931914,4.77450178e-05,0.000142363672,3.0406392e-05,0.000115199947,290897269.0,1e-06,1.5e-06,ff
5e-06,1.2375,1.6,0.403572515,4.40471329e-05,0.000118185913,0.000192133881,5.51128339e-06,4.69466984e-05,288369426.0,1e-06,1.5e-06,ff
1e-05,1.2375,1.6,0.4922493,6.5188069e-05,0.000118185913,0.000192133881,1.05978572e-05,6.78218746e-05,199611004.0,1e-06,1.5e-06,ff
1.5e-05,1.2375,1.6,0.558590776,8.09541294e-05,0.000118185913,0.000192133881,1.5612187e-05,8.3272149e-05,162575275.0,1e-06,1.5e-06,ff
2e-05,1.2375,1.6,0.613958076,9.37243582e-05,0.000118185913,0.000192133881,2.05694258e-05,9.57072633e-05,141452091.0,1e-06,1.5e-06,ff
2.5e-05,1.2375,1.6,0.662779907,0.000104543834,0.000118185913,0.000192133881,2.54997121e-05,0.000106176954,127504058.0,1e-06,1.5e-06,ff
3e-05,1.2375,1.6,0.707092382,0.000113931914,0.000118185913,0.000192133881,3.0406392e-05,0.000115199947,117517350.0,1e-06,1.5e-06,ff
5e-06,1.65,1.6,0.403572515,4.40471329e-05,0.000201374132,0.000206180808,5.51128339e-06,4.69466984e-05,169243207.0,1e-06,1.5e-06,ff
1e-05,1.65,1.6,0.4922493,6.5188069e-05,0.000201374132,0.000206180808,1.05978572e-05,6.78218746e-05,117151138.0,1e-06,1.5e-06,ff
1.5e-05,1.65,1.6,0.558590776,8.09541294e-05,0.000201374132,0.000206180808,1.5612187e-05,8.3272149e-05,95414972.4,1e-06,1.5e-06,ff
2e-05,1.65,1.6,0.613958076,9.37243582e-05,0.000201374132,0.000206180808,2.05694258e-05,9.57072633e-05,83017835.0,1e-06,1.5e-06,ff
2.5e-05,1.65,1.6,0.662779907,0.000104543834,0.000201374132,0.000206180808,2.54997121e-05,0.000106176954,74831774.0,1e-06,1.5e-06,ff
3e-05,1.65,1.6,0.707092382,0.000113931914,0.000201374132,0.000206180808,3.0406392e-05,0.000115199947,68970602.8,1e-06,1.5e-06,ff
5e-06,0.4125,1.2375,0.403572515,4.40471329e-05,6.32321607e-06,5.09570658e-05,5.51128339e-06,4.69466984e-05,4168714280.0,1e-06,1.5e-06,ff
1e-05,0.4125,1.2375,0.4922493,6.5188069e-05,6.32321607e-06,5.09570658e-05,1.05978572e-05,6.78218746e-05,2885608410.0,1e-06,1.5e-06,ff
1.5e-05,0.4125,1.2375,0.558590776,8.09541294e-05,6.32321607e-06,5.09570658e-05,1.5612187e-05,8.3272149e-05,2350214020.0,1e-06,1.5e-06,ff
2e-05,0.4125,1.2375,0.613958076,9.37243581e-05,6.32321607e-06,5.09570658e-05,2.05694258e-05,9.57072633e-05,2044853910.0,1e-06,1.5e-06,ff
2.5e-05,0.4125,1.2375,0.662779907,0.000104543834,6.32321607e-06,5.09570658e-05,2.54997121e-05,0.000106176954,1843218940.0,1e-06,1.5e-06,ff
3e-05,0.4125,1.2375,0.707092382,0.000113931914,6.32321607e-06,5.09570658e-05,3.0406392e-05,0.000115199947,1698849500.0,1e-06,1.5e-06,ff
5e-06,0.825,1.2375,0.403572515,4.40471329e-05,4.678761e-05,0.000140333578,5.51128339e-06,4.69466984e-05,563390204.0,1e-06,1.5e-06,ff
1e-05,0.825,1.2375,0.4922493,6.5188069e-05,4.678761e-05,0.000140333578,1.05978572e-05,6.78218746e-05,389981995.0,1e-06,1.5e-06,ff
1.5e-05,0.825,1.2375,0.558590776,8.09541294e-05,4.678761e-05,0.000140333578,1.5612187e-05,8.3272149e-05,317624924.0,1e-06,1.5e-06,ff
2e-05,0.825,1.2375,0.613958076,9.37243582e-05,4.678761e-05,0.000140333578,2.05694258e-05,9.57072633e-05,276356350.0,1e-06,1.5e-06,ff
2.5e-05,0.825,1.2375,0.662779907,0.000104543834,4.678761e-05,0.000140333578,2.54997121e-05,0.000106176954,249105941.0,1e-06,1.5e-06,ff
3e-05,0.825,1.2375,0.707092382,0.000113931914,4.678761e-05,0.000140333578,3.0406392e-05,0.000115199947,229594810.0,1e-06,1.5e-06,ff
5e-06,1.2375,1.2375,0.403572515,4.40471329e-05,0.000116131729,0.000188393828,5.51128339e-06,4.69466984e-05,226980872.0,1e-06,1.5e-06,ff
1e-05,1.2375,1.2375,0.4922493,6.5188069e-05,0.000116131729,0.000188393828,1.05978572e-05,6.78218746e-05,157117487.0,1e-06,1.5e-06,ff
1.5e-05,1.2375,1.2375,0.558590776,8.09541294e-05,0.000116131729,0.000188393828,1.5612187e-05,8.3272149e-05,127965984.0,1e-06,1.5e-06,ff
2e-05,1.2375,1.2375,0.613958076,9.37243582e-05,0.000116131729,0.000188393828,2.05694258e-05,9.57072633e-05,111339538.0,1e-06,1.5e-06,ff
2.5e-05,1.2375,1.2375,0.662779907,0.000104543834,0.000116131729,0.000188393828,2.54997121e-05,0.000106176954,100360786.0,1e-06,1.5e-06,ff
3e-05,1.2375,1.2375,0.707092382,0.000113931914,0.000116131729,0.000188393828,3.0406392e-05,0.000115199947,92500064.3,1e-06,1.5e-06,ff
5e-06,1.65,1.2375,0.403572515,4.40471329e-05,0.000195993067,0.000190199782,5.51128339e-06,4.69466984e-05,134492926.0,1e-06,1.5e-06,ff
1e-05,1.65,1.2375,0.4922493,6.5188069e-05,0.000195993067,0.000190199782,1.05978572e-05,6.78218746e-05,93096790.3,1e-06,1.5e-06,ff
1.5e-05,1.65,1.2375,0.558590776,8.09541294e-05,0.000195993067,0.000190199782,1.5612187e-05,8.3272149e-05,75823656.7,1e-06,1.5e-06,ff
2e-05,1.65,1.2375,0.613958076,9.37243582e-05,0.000195993067,0.000190199782,2.05694258e-05,9.57072633e-05,65971992.3,1e-06,1.5e-06,ff
2.5e-05,1.65,1.2375,0.662779907,0.000104543834,0.000195993067,0.000190199782,2.54997121e-05,0.000106176954,59466754.6,1e-06,1.5e-06,ff
3e-05,1.65,1.2375,0.707092382,0.000113931914,0.000195993067,0.000190199782,3.0406392e-05,0.000115199947,54809042.9,1e-06,1.5e-06,ff
5e-06,0.4125,0.825,0.403572515,4.40471329e-05,5.93967477e-06,4.90262976e-05,5.51128339e-06,4.69466984e-05,2958599830.0,1e-06,1.5e-06,ff
1e-05,0.4125,0.825,0.4922493,6.5188069e-05,5.93967477e-06,4.90262976e-05,1.05978572e-05,6.78218746e-05,2047960110.0,1e-06,1.5e-06,ff
1.5e-05,0.4125,0.825,0.558590776,8.09541294e-05,5.93967477e-06,4.90262976e-05,1.5612187e-05,8.3272149e-05,1667982580.0,1e-06,1.5e-06,ff
2e-05,0.4125,0.825,0.613958076,9.37243581e-05,5.93967477e-06,4.90262976e-05,2.05694258e-05,9.57072633e-05,1451263870.0,1e-06,1.5e-06,ff
2.5e-05,0.4125,0.825,0.662779907,0.000104543834,5.93967477e-06,4.90262976e-05,2.54997121e-05,0.000106176954,1308160470.0,1e-06,1.5e-06,ff
3e-05,0.4125,0.825,0.707092382,0.000113931914,5.93967477e-06,4.90262976e-05,3.0406392e-05,0.000115199947,1205699280.0,1e-06,1.5e-06,ff
5e-06,0.825,0.825,0.403572515,4.40471329e-05,4.52909687e-05,0.000136610059,5.51128339e-06,4.69466984e-05,388004966.0,1e-06,1.5e-06,ff
1e-05,0.825,0.825,0.4922493,6.5188069e-05,4.52909687e-05,0.000136610059,1.05978572e-05,6.78218746e-05,268579307.0,1e-06,1.5e-06,ff
1.5e-05,0.825,0.825,0.558590776,8.09541294e-05,4.52909687e-05,0.000136610059,1.5612187e-05,8.3272149e-05,218747232.0,1e-06,1.5e-06,ff
2e-05,0.825,0.825,0.613958076,9.37243582e-05,4.52909687e-05,0.000136610059,2.05694258e-05,9.57072633e-05,190325702.0,1e-06,1.5e-06,ff
2.5e-05,0.825,0.825,0.662779907,0.000104543834,4.52909687e-05,0.000136610059,2.54997121e-05,0.000106176954,171558436.0,1e-06,1.5e-06,ff
3e-05,0.825,0.825,0.707092382,0.000113931914,4.52909687e-05,0.000136610059,3.0406392e-05,0.000115199947,158121185.0,1e-06,1.5e-06,ff
5e-06,1.2375,0.825,0.403572515,4.40471329e-05,0.000111013138,0.000167959019,5.51128339e-06,4.69466984e-05,158297668.0,1e-06,1.5e-06,ff
1e-05,1.2375,0.825,0.4922493,6.5188069e-05,0.000111013138,0.000167959019,1.05978572e-05,6.78218746e-05,109574572.0,1e-06,1.5e-06,ff
1.5e-05,1.2375,0.825,0.558590776,8.09541294e-05,0.000111013138,0.000167959019,1.5612187e-05,8.3272149e-05,89244158.4,1e-06,1.5e-06,ff
2e-05,1.2375,0.825,0.613958076,9.37243582e-05,0.000111013138,0.000167959019,2.05694258e-05,9.57072633e-05,77648786.5,1e-06,1.5e-06,ff
2.5e-05,1.2375,0.825,0.662779907,0.000104543834,0.000111013138,0.000167959019,2.54997121e-05,0.000106176954,69992146.2,1e-06,1.5e-06,ff
3e-05,1.2375,0.825,0.707092382,0.000113931914,0.000111013138,0.000167959019,3.0406392e-05,0.000115199947,64510037.0,1e-06,1.5e-06,ff
5e-06,1.65,0.825,0.403572515,4.40471329e-05,0.000171134283,0.000116289033,5.51128339e-06,4.69466984e-05,102686151.0,1e-06,1.5e-06,ff
1e-05,1.65,0.825,0.4922493,6.5188069e-05,0.000171134283,0.000116289033,1.05978572e-05,6.78218746e-05,71079954.1,1e-06,1.5e-06,ff
1.5e-05,1.65,0.825,0.558590776,8.09541294e-05,0.000171134283,0.000116289033,1.5612187e-05,8.3272149e-05,57891813.7,1e-06,1.5e-06,ff
2e-05,1.65,0.825,0.613958076,9.37243582e-05,0.000171134283,0.000116289033,2.05694258e-05,9.57072633e-05,50370009.2,1e-06,1.5e-06,ff
2.5e-05,1.65,0.825,0.662779907,0.000104543834,0.000171134283,0.000116289033,2.54997121e-05,0.000106176954,45403221.5,1e-06,1.5e-06,ff
3e-05,1.65,0.825,0.707092382,0.000113931914,0.000171134283,0.000116289033,3.0406392e-05,0.000115199947,41847030.8,1e-06,1.5e-06,ff
5e-06,0.4125,0.4125,0.403572515,4.40471329e-05,5.41608704e-06,4.61447193e-05,5.51128339e-06,4.69466984e-05,1622307820.0,1e-06,1.5e-06,ff
1e-05,0.4125,0.4125,0.4922493,6.5188069e-05,5.41608704e-06,4.61447193e-05,1.05978572e-05,6.78218746e-05,1122970970.0,1e-06,1.5e-06,ff
1.5e-05,0.4125,0.4125,0.558590776,8.09541294e-05,5.41608704e-06,4.61447193e-05,1.5612187e-05,8.3272149e-05,914615475.0,1e-06,1.5e-06,ff
2e-05,0.4125,0.4125,0.613958076,9.37243581e-05,5.41608704e-06,4.61447193e-05,2.05694258e-05,9.57072633e-05,795780732.0,1e-06,1.5e-06,ff
2.5e-05,0.4125,0.4125,0.662779907,0.000104543834,5.41608704e-06,4.61447193e-05,2.54997121e-05,0.000106176954,717311935.0,1e-06,1.5e-06,ff
3e-05,0.4125,0.4125,0.707092382,0.000113931914,5.41608704e-06,4.61447193e-05,3.0406392e-05,0.000115199947,661128741.0,1e-06,1.5e-06,ff
5e-06,0.825,0.4125,0.403572515,4.40471329e-05,4.08854849e-05,0.000106873712,5.51128339e-06,4.69466984e-05,214906596.0,1e-06,1.5e-06,ff
1e-05,0.825,0.4125,0.4922493,6.5188069e-05,4.08854849e-05,0.000106873712,1.05978572e-05,6.78218746e-05,148759603.0,1e-06,1.5e-06,ff
1.5e-05,0.825,0.4125,0.558590776,8.09541294e-05,4.08854849e-05,0.000106873712,1.5612187e-05,8.3272149e-05,121158818.0,1e-06,1.5e-06,ff
2e-05,0.825,0.4125,0.613958076,9.37243582e-05,4.08854849e-05,0.000106873712,2.05694258e-05,9.57072633e-05,105416818.0,1e-06,1.5e-06,ff
2.5e-05,0.825,0.4125,0.662779907,0.000104543834,4.08854849e-05,0.000106873712,2.54997121e-05,0.000106176954,95022081.5,1e-06,1.5e-06,ff
3e-05,0.825,0.4125,0.707092382,0.000113931914,4.08854849e-05,0.000106873712,3.0406392e-05,0.000115199947,87579511.9,1e-06,1.5e-06,ff
5e-06,1.2375,0.4125,0.403572515,4.40471329e-05,7.87053954e-05,7.34185848e-05,5.51128339e-06,4.69466984e-05,111638603.0,1e-06,1.5e-06,ff
1e-05,1.2375,0.4125,0.4922493,6.5188069e-05,7.87053954e-05,7.34185848e-05,1.05978572e-05,6.78218746e-05,77276894.0,1e-06,1.5e-06,ff
1.5e-05,1.2375,0.4125,0.558590776,8.09541294e-05,7.87053954e-05,7.34185848e-05,1.5612187e-05,8.3272149e-05,62938976.4,1e-06,1.5e-06,ff
2e-05,1.2375,0.4125,0.613958076,9.37243582e-05,7.87053954e-05,7.34185848e-05,2.05694258e-05,9.57072633e-05,54761400.9,1e-06,1.5e-06,ff
2.5e-05,1.2375,0.4125,0.662779907,0.000104543834,7.87053954e-05,7.34185848e-05,2.54997121e-05,0.000106176954,49361595.4,1e-06,1.5e-06,ff
3e-05,1.2375,0.4125,0.707092382,0.000113931914,7.87053954e-05,7.34185848e-05,3.0406392e-05,0.000115199947,45495366.5,1e-06,1.5e-06,ff
5e-06,1.65,0.4125,0.403572515,4.40471329e-05,0.000102046658,4.15515814e-05,5.51128339e-06,4.69466984e-05,86103362.6,1e-06,1.5e-06,ff
1e-05,1.65,0.4125,0.4922493,6.5188069e-05,0.000102046658,4.15515814e-05,1.05978572e-05,6.78218746e-05,59601251.2,1e-06,1.5e-06,ff
1.5e-05,1.65,0.4125,0.558590776,8.09541294e-05,0.000102046658,4.15515814e-05,1.5612187e-05,8.3272149e-05,48542863.9,1e-06,1.5e-06,ff
2e-05,1.65,0.4125,0.613958076,9.37243582e-05,0.000102046658,4.15515814e-05,2.05694258e-05,9.57072633e-05,42235755.7,1e-06,1.5e-06,ff
2.5e-05,1.65,0.4125,0.662779907,0.000104543834,0.000102046658,4.15515814e-05,2.54997121e-05,0.000106176954,38071054.5,1e-06,1.5e-06,ff
3e-05,1.65,0.4125,0.707092382,0.000113931914,0.000102046658,4.15515814e-05,3.0406392e-05,0.000115199947,35089153.2,1e-06,1.5e-06,ff
5e-06,0.4125,0.05,0.403572515,4.40471329e-05,2.23363209e-06,1.33303336e-05,5.51128339e-06,4.69466984e-05,476818732.0,1e-06,1.5e-06,ff
1e-05,0.4125,0.05,0.4922493,6.5188069e-05,2.23363209e-06,1.33303336e-05,1.05978572e-05,6.78218746e-05,330056715.0,1e-06,1.5e-06,ff
1.5e-05,0.4125,0.05,0.558590776,8.09541294e-05,2.23363209e-06,1.33303336e-05,1.5612187e-05,8.3272149e-05,268818152.0,1e-06,1.5e-06,ff
2e-05,0.4125,0.05,0.613958076,9.37243581e-05,2.23363209e-06,1.33303336e-05,2.05694258e-05,9.57072633e-05,233890975.0,1e-06,1.5e-06,ff
2.5e-05,0.4125,0.05,0.662779907,0.000104543834,2.23363209e-06,1.33303336e-05,2.54997121e-05,0.000106176954,210827910.0,1e-06,1.5e-06,ff
3e-05,0.4125,0.05,0.707092382,0.000113931914,2.23363209e-06,1.33303336e-05,3.0406392e-05,0.000115199947,194314891.0,1e-06,1.5e-06,ff
5e-06,0.825,0.05,0.403572515,4.40471329e-05,7.69407626e-06,1.15786376e-05,5.51128339e-06,4.69466984e-05,138423065.0,1e-06,1.5e-06,ff
1e-05,0.825,0.05,0.4922493,6.5188069e-05,7.69407626e-06,1.15786376e-05,1.05978572e-05,6.78218746e-05,95817255.6,1e-06,1.5e-06,ff
1.5e-05,0.825,0.05,0.558590776,8.09541294e-05,7.69407626e-06,1.15786376e-05,1.5612187e-05,8.3272149e-05,78039368.3,1e-06,1.5e-06,ff
2e-05,0.825,0.05,0.613958076,9.37243582e-05,7.69407626e-06,1.15786376e-05,2.05694258e-05,9.57072633e-05,67899819.4,1e-06,1.5e-06,ff
2.5e-05,0.825,0.05,0.662779907,0.000104543834,7.69407626e-06,1.15786376e-05,2.54997121e-05,0.000106176954,61204486.3,1e-06,1.5e-06,ff
3e-05,0.825,0.05,0.707092382,0.000113931914,7.69407626e-06,1.15786376e-05,3.0406392e-05,0.000115199947,56410667.4,1e-06,1.5e-06,ff
5e-06,1.2375,0.05,0.403572515,4.40471329e-05,1.14917001e-05,6.95186225e-06,5.51128339e-06,4.69466984e-05,92678856.5,1e-06,1.5e-06,ff
1e-05,1.2375,0.05,0.4922493,6.5188069e-05,1.14917001e-05,6.95186225e-06,1.05978572e-05,6.78218746e-05,64152846.6,1e-06,1.5e-06,ff
1.5e-05,1.2375,0.05,0.558590776,8.09541294e-05,1.14917001e-05,6.95186225e-06,1.5612187e-05,8.3272149e-05,52249958.4,1e-06,1.5e-06,ff
2e-05,1.2375,0.05,0.613958076,9.37243582e-05,1.14917001e-05,6.95186225e-06,2.05694258e-05,9.57072633e-05,45461192.5,1e-06,1.5e-06,ff
2.5e-05,1.2375,0.05,0.662779907,0.000104543834,1.14917001e-05,6.95186225e-06,2.54997121e-05,0.000106176954,40978443.8,1e-06,1.5e-06,ff
3e-05,1.2375,0.05,0.707092382,0.000113931914,1.14917001e-05,6.95186225e-06,3.0406392e-05,0.000115199947,37768822.2,1e-06,1.5e-06,ff
5e-06,1.65,0.05,0.403572515,4.40471329e-05,1.36229307e-05,3.59410282e-06,5.51128339e-06,4.69466984e-05,78179772.4,1e-06,1.5e-06,ff
1e-05,1.65,0.05,0.4922493,6.5188069e-05,1.36229307e-05,3.59410282e-06,1.05978572e-05,6.78218746e-05,54116495.8,1e-06,1.5e-06,ff
1.5e-05,1.65,0.05,0.558590776,8.09541294e-05,1.36229307e-05,3.59410282e-06,1.5612187e-05,8.3272149e-05,44075747.3,1e-06,1.5e-06,ff
2e-05,1.65,0.05,0.613958076,9.37243582e-05,1.36229307e-05,3.59410282e-06,2.05694258e-05,9.57072633e-05,38349045.5,1e-06,1.5e-06,ff
2.5e-05,1.65,0.05,0.662779907,0.000104543834,1.36229307e-05,3.59410282e-06,2.54997121e-05,0.000106176954,34567597.5,1e-06,1.5e-06,ff
3e-05,1.65,0.05,0.707092382,0.000113931914,1.36229307e-05,3.59410282e-06,3.0406392e-05,0.000115199947,31860103.1,1e-06,1.5e-06,ff
5e-06,0.4125,1.65,0.316737156,6.34544647e-05,1.71385092e-05,0.000134079985,5.95559751e-06,7.11369263e-05,1353367700.0,2.5e-06,1.5e-06,ff
1e-05,0.4125,1.65,0.377064087,9.71417795e-05,1.71385092e-05,0.000134079985,1.124482e-05,0.000104695155,919568991.0,2.5e-06,1.5e-06,ff
1.5e-05,0.4125,1.65,0.421041713,0.000123226936,1.71385092e-05,0.000134079985,1.64140397e-05,0.000130511715,737668787.0,2.5e-06,1.5e-06,ff
