i-sweep,v(VG),v(VD),v(Vbias),gmrp,Ipeak_unit,gmron_unit,Ibias_unit,gmbias_unit,Ron_Gm_unit,width,length,corner
5e-06,1.2375,1.65,1.10799626,3.97294853e-05,1.40252414e-06,1.92638271e-05,5.1317336e-06,4.06575904e-05,28935564800.0,1e-06,5e-07,ff
1e-05,1.2375,1.65,1.00615731,5.76685905e-05,1.40252414e-06,1.92638271e-05,1.01843251e-05,5.84375061e-05,20131768500.0,1e-06,5e-07,ff
1.5e-05,1.2375,1.65,0.929973341,7.03760374e-05,1.40252414e-06,1.92638271e-05,1.5117995e-05,7.09265925e-05,16586872400.0,1e-06,5e-07,ff
2e-05,1.2375,1.65,0.864922268,8.04936512e-05,1.40252414e-06,1.92638271e-05,2.00560658e-05,8.0750991e-05,14568865700.0,1e-06,5e-07,ff
2.5e-05,1.2375,1.65,0.806971982,8.88664933e-05,1.40252414e-06,1.92638271e-05,2.49704154e-05,8.87240622e-05,13259653700.0,1e-06,5e-07,ff
3e-05,1.2375,1.65,0.753907395,9.59863633e-05,1.40252414e-06,1.92638271e-05,2.98562476e-05,9.53012682e-05,12344540300.0,1e-06,5e-07,ff
5e-06,0.825,1.65,1.10799596,3.97295387e-05,2.4146189e-05,8.90495332e-05,5.13174578e-06,4.06576435e-05,1680711400.0,1e-06,5e-07,ff
1e-05,0.825,1.65,1.00615732,5.76685888e-05,2.4146189e-05,8.90495332e-05,1.01843245e-05,5.84375043e-05,1169347760.0,1e-06,5e-07,ff
1.5e-05,0.825,1.65,0.929973341,7.03760374e-05,2.4146189e-05,8.90495332e-05,1.5117995e-05,7.09265925e-05,963443505.0,1e-06,5e-07,ff
2e-05,0.825,1.65,0.864922268,8.04936512e-05,2.4146189e-05,8.90495332e-05,2.00560658e-05,8.0750991e-05,846228189.0,1e-06,5e-07,ff
2.5e-05,0.825,1.65,0.806971982,8.88664933e-05,2.4146189e-05,8.90495332e-05,2.49704154e-05,8.87240622e-05,770183006.0,1e-06,5e-07,ff
3e-05,0.825,1.65,0.753907395,9.59863633e-05,2.4146189e-05,8.90495332e-05,2.98562476e-05,9.53012682e-05,717028915.0,1e-06,5e-07,ff
5e-06,0.4125,1.65,1.10799596,3.97295387e-05,7.10552474e-05,0.00013355051,5.13174578e-06,4.06576435e-05,571143955.0,1e-06,5e-07,ff
1e-05,0.4125,1.65,1.00615732,5.76685888e-05,7.10552474e-05,0.00013355051,1.01843245e-05,5.84375043e-05,397370962.0,1e-06,5e-07,ff
1.5e-05,0.4125,1.65,0.929973341,7.03760374e-05,7.10552474e-05,0.00013355051,1.5117995e-05,7.09265925e-05,327400013.0,1e-06,5e-07,ff
2e-05,0.4125,1.65,0.864922268,8.04936512e-05,7.10552474e-05,0.00013355051,2.00560658e-05,8.0750991e-05,287567583.0,1e-06,5e-07,ff
2.5e-05,0.4125,1.65,0.806971982,8.88664933e-05,7.10552474e-05,0.00013355051,2.49704154e-05,8.87240622e-05,261725701.0,1e-06,5e-07,ff
3e-05,0.4125,1.65,0.753907395,9.59863633e-05,7.10552474e-05,0.00013355051,2.98562476e-05,9.53012682e-05,243662732.0,1e-06,5e-07,ff
5e-06,0.0,1.65,1.10799596,3.97295387e-05,0.000130771231,0.000152042677,5.13174578e-06,4.06576435e-05,310334120.0,1e-06,5e-07,ff
1e-05,0.0,1.65,1.00615732,5.76685888e-05,0.000130771231,0.000152042677,1.01843245e-05,5.84375043e-05,215913636.0,1e-06,5e-07,ff
1.5e-05,0.0,1.65,0.929973341,7.03760374e-05,0.000130771231,0.000152042677,1.5117995e-05,7.09265925e-05,177894547.0,1e-06,5e-07,ff
2e-05,0.0,1.65,0.864922268,8.04936512e-05,0.000130771231,0.000152042677,2.00560658e-05,8.0750991e-05,156251383.0,1e-06,5e-07,ff
2.5e-05,0.0,1.65,0.806971982,8.88664933e-05,0.000130771231,0.000152042677,2.49704154e-05,8.87240622e-05,142210058.0,1e-06,5e-07,ff
3e-05,0.0,1.65,0.753907395,9.59863633e-05,0.000130771231,0.000152042677,2.98562476e-05,9.53012682e-05,132395447.0,1e-06,5e-07,ff
5e-06,1.1875,1.6,1.10799626,3.97294853e-05,1.22989649e-06,1.77051097e-05,5.1317336e-06,4.06575904e-05,31997038600.0,1e-06,5e-07,ff
1e-05,1.1875,1.6,1.00615731,5.76685905e-05,1.22989649e-06,1.77051097e-05,1.01843251e-05,5.84375061e-05,22261772900.0,1e-06,5e-07,ff
1.5e-05,1.1875,1.6,0.929973341,7.03760374e-05,1.22989649e-06,1.77051097e-05,1.5117995e-05,7.09265925e-05,18341815700.0,1e-06,5e-07,ff
2e-05,1.1875,1.6,0.864922268,8.04936512e-05,1.22989649e-06,1.77051097e-05,2.00560658e-05,8.0750991e-05,16110297500.0,1e-06,5e-07,ff
2.5e-05,1.1875,1.6,0.806971982,8.88664933e-05,1.22989649e-06,1.77051097e-05,2.49704154e-05,8.87240622e-05,14662566800.0,1e-06,5e-07,ff
3e-05,1.1875,1.6,0.753907395,9.59863633e-05,1.22989649e-06,1.77051097e-05,2.98562476e-05,9.53012682e-05,13650631500.0,1e-06,5e-07,ff
5e-06,0.775,1.6,1.10799596,3.97295387e-05,2.31777126e-05,8.70809326e-05,5.13174578e-06,4.06576435e-05,1697880830.0,1e-06,5e-07,ff
1e-05,0.775,1.6,1.00615732,5.76685888e-05,2.31777126e-05,8.70809326e-05,1.01843245e-05,5.84375043e-05,1181293320.0,1e-06,5e-07,ff
1.5e-05,0.775,1.6,0.929973341,7.03760374e-05,2.31777126e-05,8.70809326e-05,1.5117995e-05,7.09265925e-05,973285637.0,1e-06,5e-07,ff
2e-05,0.775,1.6,0.864922268,8.04936512e-05,2.31777126e-05,8.70809326e-05,2.00560658e-05,8.0750991e-05,854872899.0,1e-06,5e-07,ff
2.5e-05,0.775,1.6,0.806971982,8.88664933e-05,2.31777126e-05,8.70809326e-05,2.49704154e-05,8.87240622e-05,778050870.0,1e-06,5e-07,ff
3e-05,0.775,1.6,0.753907395,9.59863633e-05,2.31777126e-05,8.70809326e-05,2.98562476e-05,9.53012682e-05,724353779.0,1e-06,5e-07,ff
5e-06,0.3625,1.6,1.10799596,3.97295387e-05,6.93694393e-05,0.000132041972,5.13174578e-06,4.06576435e-05,567295835.0,1e-06,5e-07,ff
1e-05,0.3625,1.6,1.00615732,5.76685888e-05,6.93694393e-05,0.000132041972,1.01843245e-05,5.84375043e-05,394693649.0,1e-06,5e-07,ff
1.5e-05,0.3625,1.6,0.929973341,7.03760374e-05,6.93694393e-05,0.000132041972,1.5117995e-05,7.09265925e-05,325194134.0,1e-06,5e-07,ff
2e-05,0.3625,1.6,0.864922268,8.04936512e-05,6.93694393e-05,0.000132041972,2.00560658e-05,8.0750991e-05,285630078.0,1e-06,5e-07,ff
2.5e-05,0.3625,1.6,0.806971982,8.88664933e-05,6.93694393e-05,0.000132041972,2.49704154e-05,8.87240622e-05,259962306.0,1e-06,5e-07,ff
3e-05,0.3625,1.6,0.753907395,9.59863633e-05,6.93694393e-05,0.000132041972,2.98562476e-05,9.53012682e-05,242021038.0,1e-06,5e-07,ff
5e-06,-0.05,1.6,1.10799596,3.97295387e-05,0.000128488945,0.000150505698,5.13174578e-06,4.06576435e-05,306275329.0,1e-06,5e-07,ff
1e-05,-0.05,1.6,1.00615732,5.76685888e-05,0.000128488945,0.000150505698,1.01843245e-05,5.84375043e-05,213089749.0,1e-06,5e-07,ff
1.5e-05,-0.05,1.6,0.929973341,7.03760374e-05,0.000128488945,0.000150505698,1.5117995e-05,7.09265925e-05,175567904.0,1e-06,5e-07,ff
2e-05,-0.05,1.6,0.864922268,8.04936512e-05,0.000128488945,0.000150505698,2.00560658e-05,8.0750991e-05,154207806.0,1e-06,5e-07,ff
2.5e-05,-0.05,1.6,0.806971982,8.88664933e-05,0.000128488945,0.000150505698,2.49704154e-05,8.87240622e-05,140350124.0,1e-06,5e-07,ff
3e-05,-0.05,1.6,0.753907395,9.59863633e-05,0.000128488945,0.000150505698,2.98562476e-05,9.53012682e-05,130663877.0,1e-06,5e-07,ff
5e-06,0.825,1.2375,1.10799626,3.97294853e-05,4.33461368e-07,8.73547871e-06,5.1317336e-06,4.06575904e-05,70218762800.0,1e-06,5e-07,ff
1e-05,0.825,1.2375,1.00615731,5.76685905e-05,4.33461368e-07,8.73547871e-06,1.01843251e-05,5.84375061e-05,48854338400.0,1e-06,5e-07,ff
1.5e-05,0.825,1.2375,0.929973341,7.03760374e-05,4.33461368e-07,8.73547871e-06,1.5117995e-05,7.09265925e-05,40251837800.0,1e-06,5e-07,ff
2e-05,0.825,1.2375,0.864922268,8.04936512e-05,4.33461368e-07,8.73547871e-06,2.00560658e-05,8.0750991e-05,35354683100.0,1e-06,5e-07,ff
2.5e-05,0.825,1.2375,0.806971982,8.88664933e-05,4.33461368e-07,8.73547871e-06,2.49704154e-05,8.87240622e-05,32177581000.0,1e-06,5e-07,ff
3e-05,0.825,1.2375,0.753907395,9.59863633e-05,4.33461368e-07,8.73547871e-06,2.98562476e-05,9.53012682e-05,29956849000.0,1e-06,5e-07,ff
5e-06,0.4125,1.2375,1.10799596,3.97295387e-05,1.7372629e-05,7.40798559e-05,5.13174578e-06,4.06576435e-05,1752013540.0,1e-06,5e-07,ff
1e-05,0.4125,1.2375,1.00615732,5.76685888e-05,1.7372629e-05,7.40798559e-05,1.01843245e-05,5.84375043e-05,1218955920.0,1e-06,5e-07,ff
1.5e-05,0.4125,1.2375,0.929973341,7.03760374e-05,1.7372629e-05,7.40798559e-05,1.5117995e-05,7.09265925e-05,1004316430.0,1e-06,5e-07,ff
2e-05,0.4125,1.2375,0.864922268,8.04936512e-05,1.7372629e-05,7.40798559e-05,2.00560658e-05,8.0750991e-05,882128396.0,1e-06,5e-07,ff
2.5e-05,0.4125,1.2375,0.806971982,8.88664933e-05,1.7372629e-05,7.40798559e-05,2.49704154e-05,8.87240622e-05,802857087.0,1e-06,5e-07,ff
3e-05,0.4125,1.2375,0.753907395,9.59863633e-05,1.7372629e-05,7.40798559e-05,2.98562476e-05,9.53012682e-05,747447998.0,1e-06,5e-07,ff
5e-06,0.0,1.2375,1.10799596,3.97295387e-05,5.85866693e-05,0.000120779517,5.13174578e-06,4.06576435e-05,519522301.0,1e-06,5e-07,ff
1e-05,0.0,1.2375,1.00615732,5.76685888e-05,5.85866693e-05,0.000120779517,1.01843245e-05,5.84375043e-05,361455418.0,1e-06,5e-07,ff
1.5e-05,0.0,1.2375,0.929973341,7.03760374e-05,5.85866693e-05,0.000120779517,1.5117995e-05,7.09265925e-05,297808647.0,1e-06,5e-07,ff
2e-05,0.0,1.2375,0.864922268,8.04936512e-05,5.85866693e-05,0.000120779517,2.00560658e-05,8.0750991e-05,261576388.0,1e-06,5e-07,ff
2.5e-05,0.0,1.2375,0.806971982,8.88664933e-05,5.85866693e-05,0.000120779517,2.49704154e-05,8.87240622e-05,238070170.0,1e-06,5e-07,ff
3e-05,0.0,1.2375,0.753907395,9.59863633e-05,5.85866693e-05,0.000120779517,2.98562476e-05,9.53012682e-05,221639784.0,1e-06,5e-07,ff
5e-06,-0.4125,1.2375,1.10799596,3.97295387e-05,0.000112572887,0.000135239528,5.13174578e-06,4.06576435e-05,270376661.0,1e-06,5e-07,ff
1e-05,-0.4125,1.2375,1.00615732,5.76685888e-05,0.000112572887,0.000135239528,1.01843245e-05,5.84375043e-05,188113405.0,1e-06,5e-07,ff
1.5e-05,-0.4125,1.2375,0.929973341,7.03760374e-05,0.000112572887,0.000135239528,1.5117995e-05,7.09265925e-05,154989511.0,1e-06,5e-07,ff
2e-05,-0.4125,1.2375,0.864922268,8.04936512e-05,0.000112572887,0.000135239528,2.00560658e-05,8.0750991e-05,136133040.0,1e-06,5e-07,ff
2.5e-05,-0.4125,1.2375,0.806971982,8.88664933e-05,0.000112572887,0.000135239528,2.49704154e-05,8.87240622e-05,123899623.0,1e-06,5e-07,ff
3e-05,-0.4125,1.2375,0.753907395,9.59863633e-05,0.000112572887,0.000135239528,2.98562476e-05,9.53012682e-05,115348705.0,1e-06,5e-07,ff
5e-06,0.4125,0.825,1.10799626,3.97294853e-05,1.04203883e-07,2.84053898e-06,5.1317336e-06,4.06575904e-05,194728003000.0,1e-06,5e-07,ff
1e-05,0.4125,0.825,1.00615731,5.76685905e-05,1.04203883e-07,2.84053898e-06,1.01843251e-05,5.84375061e-05,135480994000.0,1e-06,5e-07,ff
1.5e-05,0.4125,0.825,0.929973341,7.03760374e-05,1.04203883e-07,2.84053898e-06,1.5117995e-05,7.09265925e-05,111624866000.0,1e-06,5e-07,ff
2e-05,0.4125,0.825,0.864922268,8.04936512e-05,1.04203883e-07,2.84053898e-06,2.00560658e-05,8.0750991e-05,98044263000.0,1e-06,5e-07,ff
2.5e-05,0.4125,0.825,0.806971982,8.88664933e-05,1.04203883e-07,2.84053898e-06,2.49704154e-05,8.87240622e-05,89233644200.0,1e-06,5e-07,ff
3e-05,0.4125,0.825,0.753907395,9.59863633e-05,1.04203883e-07,2.84053898e-06,2.98562476e-05,9.53012682e-05,83075194600.0,1e-06,5e-07,ff
5e-06,-1.11022302e-16,0.825,1.10799596,3.97295387e-05,1.25632187e-05,6.13026869e-05,5.13174578e-06,4.06576435e-05,1615142420.0,1e-06,5e-07,ff
1e-05,-1.11022302e-16,0.825,1.00615732,5.76685888e-05,1.25632187e-05,6.13026869e-05,1.01843245e-05,5.84375043e-05,1123728430.0,1e-06,5e-07,ff
1.5e-05,-1.11022302e-16,0.825,0.929973341,7.03760374e-05,1.25632187e-05,6.13026869e-05,1.5117995e-05,7.09265925e-05,925857037.0,1e-06,5e-07,ff
2e-05,-1.11022302e-16,0.825,0.864922268,8.04936512e-05,1.25632187e-05,6.13026869e-05,2.00560658e-05,8.0750991e-05,813214599.0,1e-06,5e-07,ff
2.5e-05,-1.11022302e-16,0.825,0.806971982,8.88664933e-05,1.25632187e-05,6.13026869e-05,2.49704154e-05,8.87240622e-05,740136138.0,1e-06,5e-07,ff
3e-05,-1.11022302e-16,0.825,0.753907395,9.59863633e-05,1.25632187e-05,6.13026869e-05,2.98562476e-05,9.53012682e-05,689055728.0,1e-06,5e-07,ff
5e-06,-0.4125,0.825,1.10799596,3.97295387e-05,4.80724155e-05,0.000104162696,5.13174578e-06,4.06576435e-05,422100435.0,1e-06,5e-07,ff
1e-05,-0.4125,0.825,1.00615732,5.76685888e-05,4.80724155e-05,0.000104162696,1.01843245e-05,5.84375043e-05,293674571.0,1e-06,5e-07,ff
1.5e-05,-0.4125,0.825,0.929973341,7.03760374e-05,4.80724155e-05,0.000104162696,1.5117995e-05,7.09265925e-05,241962971.0,1e-06,5e-07,ff
2e-05,-0.4125,0.825,0.864922268,8.04936512e-05,4.80724155e-05,0.000104162696,2.00560658e-05,8.0750991e-05,212525058.0,1e-06,5e-07,ff
2.5e-05,-0.4125,0.825,0.806971982,8.88664933e-05,4.80724155e-05,0.000104162696,2.49704154e-05,8.87240622e-05,193426773.0,1e-06,5e-07,ff
3e-05,-0.4125,0.825,0.753907395,9.59863633e-05,4.80724155e-05,0.000104162696,2.98562476e-05,9.53012682e-05,180077447.0,1e-06,5e-07,ff
5e-06,-0.825,0.825,1.10799596,3.97295387e-05,9.155918e-05,9.93035438e-05,5.13174578e-06,4.06576435e-05,221620459.0,1e-06,5e-07,ff
1e-05,-0.825,0.825,1.00615732,5.76685888e-05,9.155918e-05,9.93035438e-05,1.01843245e-05,5.84375043e-05,154191486.0,1e-06,5e-07,ff
1.5e-05,-0.825,0.825,0.929973341,7.03760374e-05,9.155918e-05,9.93035438e-05,1.5117995e-05,7.09265925e-05,127040723.0,1e-06,5e-07,ff
2e-05,-0.825,0.825,0.864922268,8.04936512e-05,9.155918e-05,9.93035438e-05,2.00560658e-05,8.0750991e-05,111584583.0,1e-06,5e-07,ff
2.5e-05,-0.825,0.825,0.806971982,8.88664933e-05,9.155918e-05,9.93035438e-05,2.49704154e-05,8.87240622e-05,101557181.0,1e-06,5e-07,ff
3e-05,-0.825,0.825,0.753907395,9.59863633e-05,9.155918e-05,9.93035438e-05,2.98562476e-05,9.53012682e-05,94548223.7,1e-06,5e-07,ff
5e-06,-5.5511151199999996e-17,0.4125,1.10799626,3.97294853e-05,2.13308413e-08,6.63746815e-07,5.1317336e-06,4.06575904e-05,475635576000.0,1e-06,5e-07,ff
1e-05,-5.5511151199999996e-17,0.4125,1.00615731,5.76685905e-05,2.13308413e-08,6.63746815e-07,1.01843251e-05,5.84375061e-05,330920974000.0,1e-06,5e-07,ff
1.5e-05,-5.5511151199999996e-17,0.4125,0.929973341,7.03760374e-05,2.13308413e-08,6.63746815e-07,1.5117995e-05,7.09265925e-05,272650860000.0,1e-06,5e-07,ff
2e-05,-5.5511151199999996e-17,0.4125,0.864922268,8.04936512e-05,2.13308413e-08,6.63746815e-07,2.00560658e-05,8.0750991e-05,239479370000.0,1e-06,5e-07,ff
2.5e-05,-5.5511151199999996e-17,0.4125,0.806971982,8.88664933e-05,2.13308413e-08,6.63746815e-07,2.49704154e-05,8.87240622e-05,217958871000.0,1e-06,5e-07,ff
3e-05,-5.5511151199999996e-17,0.4125,0.753907395,9.59863633e-05,2.13308413e-08,6.63746815e-07,2.98562476e-05,9.53012682e-05,202916465000.0,1e-06,5e-07,ff
5e-06,-0.4125,0.4125,1.10799596,3.97295387e-05,8.8261012e-06,4.8454759e-05,5.13174578e-06,4.06576435e-05,1149510240.0,1e-06,5e-07,ff
1e-05,-0.4125,0.4125,1.00615732,5.76685888e-05,8.8261012e-06,4.8454759e-05,1.01843245e-05,5.84375043e-05,799766833.0,1e-06,5e-07,ff
1.5e-05,-0.4125,0.4125,0.929973341,7.03760374e-05,8.8261012e-06,4.8454759e-05,1.5117995e-05,7.09265925e-05,658940126.0,1e-06,5e-07,ff
2e-05,-0.4125,0.4125,0.864922268,8.04936512e-05,8.8261012e-06,4.8454759e-05,2.00560658e-05,8.0750991e-05,578771569.0,1e-06,5e-07,ff
2.5e-05,-0.4125,0.4125,0.806971982,8.88664933e-05,8.8261012e-06,4.8454759e-05,2.49704154e-05,8.87240622e-05,526761023.0,1e-06,5e-07,ff
3e-05,-0.4125,0.4125,0.753907395,9.59863633e-05,8.8261012e-06,4.8454759e-05,2.98562476e-05,9.53012682e-05,490406672.0,1e-06,5e-07,ff
5e-06,-0.825,0.4125,1.10799596,3.97295387e-05,3.38539042e-05,6.10619833e-05,5.13174578e-06,4.06576435e-05,299690508.0,1e-06,5e-07,ff
1e-05,-0.825,0.4125,1.00615732,5.76685888e-05,3.38539042e-05,6.10619833e-05,1.01843245e-05,5.84375043e-05,208508388.0,1e-06,5e-07,ff
1.5e-05,-0.825,0.4125,0.929973341,7.03760374e-05,3.38539042e-05,6.10619833e-05,1.5117995e-05,7.09265925e-05,171793250.0,1e-06,5e-07,ff
2e-05,-0.825,0.4125,0.864922268,8.04936512e-05,3.38539042e-05,6.10619833e-05,2.00560658e-05,8.0750991e-05,150892388.0,1e-06,5e-07,ff
2.5e-05,-0.825,0.4125,0.806971982,8.88664933e-05,3.38539042e-05,6.10619833e-05,2.49704154e-05,8.87240622e-05,137332642.0,1e-06,5e-07,ff
3e-05,-0.825,0.4125,0.753907395,9.59863633e-05,3.38539042e-05,6.10619833e-05,2.98562476e-05,9.53012682e-05,127854645.0,1e-06,5e-07,ff
5e-06,-1.2375,0.4125,1.10799596,3.97295387e-05,5.540835e-05,4.35046014e-05,5.13174578e-06,4.06576435e-05,183107668.0,1e-06,5e-07,ff
1e-05,-1.2375,0.4125,1.00615732,5.76685888e-05,5.540835e-05,4.35046014e-05,1.01843245e-05,5.84375043e-05,127396376.0,1e-06,5e-07,ff
1.5e-05,-1.2375,0.4125,0.929973341,7.03760374e-05,5.540835e-05,4.35046014e-05,1.5117995e-05,7.09265925e-05,104963823.0,1e-06,5e-07,ff
2e-05,-1.2375,0.4125,0.864922268,8.04936512e-05,5.540835e-05,4.35046014e-05,2.00560658e-05,8.0750991e-05,92193621.4,1e-06,5e-07,ff
2.5e-05,-1.2375,0.4125,0.806971982,8.88664933e-05,5.540835e-05,4.35046014e-05,2.49704154e-05,8.87240622e-05,83908762.8,1e-06,5e-07,ff
3e-05,-1.2375,0.4125,0.753907395,9.59863633e-05,5.540835e-05,4.35046014e-05,2.98562476e-05,9.53012682e-05,78117809.3,1e-06,5e-07,ff
5e-06,-0.3625,0.05,1.10799626,3.97294853e-05,4.46043902e-09,1.43606149e-07,5.1317336e-06,4.06575904e-05,275708885000.0,1e-06,5e-07,ff
1e-05,-0.3625,0.05,1.00615731,5.76685905e-05,4.46043902e-09,1.43606149e-07,1.01843251e-05,5.84375061e-05,191823020000.0,1e-06,5e-07,ff
1.5e-05,-0.3625,0.05,0.929973341,7.03760374e-05,4.46043902e-09,1.43606149e-07,1.5117995e-05,7.09265925e-05,158045925000.0,1e-06,5e-07,ff
2e-05,-0.3625,0.05,0.864922268,8.04936512e-05,4.46043902e-09,1.43606149e-07,2.00560658e-05,8.0750991e-05,138817602000.0,1e-06,5e-07,ff
2.5e-05,-0.3625,0.05,0.806971982,8.88664933e-05,4.46043902e-09,1.43606149e-07,2.49704154e-05,8.87240622e-05,126342941000.0,1e-06,5e-07,ff
3e-05,-0.3625,0.05,0.753907395,9.59863633e-05,4.46043902e-09,1.43606149e-07,2.98562476e-05,9.53012682e-05,117623397000.0,1e-06,5e-07,ff
5e-06,-0.775,0.05,1.10799596,3.97295387e-05,2.1585929e-06,8.261156e-06,5.13174578e-06,4.06576435e-05,569714216.0,1e-06,5e-07,ff
1e-05,-0.775,0.05,1.00615732,5.76685888e-05,2.1585929e-06,8.261156e-06,1.01843245e-05,5.84375043e-05,396376228.0,1e-06,5e-07,ff
1.5e-05,-0.775,0.05,0.929973341,7.03760374e-05,2.1585929e-06,8.261156e-06,1.5117995e-05,7.09265925e-05,326580436.0,1e-06,5e-07,ff
2e-05,-0.775,0.05,0.864922268,8.04936512e-05,2.1585929e-06,8.261156e-06,2.00560658e-05,8.0750991e-05,286847718.0,1e-06,5e-07,ff
2.5e-05,-0.775,0.05,0.806971982,8.88664933e-05,2.1585929e-06,8.261156e-06,2.49704154e-05,8.87240622e-05,261070525.0,1e-06,5e-07,ff
3e-05,-0.775,0.05,0.753907395,9.59863633e-05,2.1585929e-06,8.261156e-06,2.98562476e-05,9.53012682e-05,243052773.0,1e-06,5e-07,ff
5e-06,-1.1875,0.05,1.10799596,3.97295387e-05,5.2504138e-06,6.455009e-06,5.13174578e-06,4.06576435e-05,234225550.0,1e-06,5e-07,ff
1e-05,-1.1875,0.05,1.00615732,5.76685888e-05,5.2504138e-06,6.455009e-06,1.01843245e-05,5.84375043e-05,162961424.0,1e-06,5e-07,ff
1.5e-05,-1.1875,0.05,0.929973341,7.03760374e-05,5.2504138e-06,6.455009e-06,1.5117995e-05,7.09265925e-05,134266410.0,1e-06,5e-07,ff
2e-05,-1.1875,0.05,0.864922268,8.04936512e-05,5.2504138e-06,6.455009e-06,2.00560658e-05,8.0750991e-05,117931171.0,1e-06,5e-07,ff
2.5e-05,-1.1875,0.05,0.806971982,8.88664933e-05,5.2504138e-06,6.455009e-06,2.49704154e-05,8.87240622e-05,107333441.0,1e-06,5e-07,ff
3e-05,-1.1875,0.05,0.753907395,9.59863633e-05,5.2504138e-06,6.455009e-06,2.98562476e-05,9.53012682e-05,99925836.2,1e-06,5e-07,ff
5e-06,-1.6,0.05,1.10799596,3.97295387e-05,7.49784991e-06,4.54638781e-06,5.13174578e-06,4.06576435e-05,164017828.0,1e-06,5e-07,ff
1e-05,-1.6,0.05,1.00615732,5.76685888e-05,7.49784991e-06,4.54638781e-06,1.01843245e-05,5.84375043e-05,114114702.0,1e-06,5e-07,ff
1.5e-05,-1.6,0.05,0.929973341,7.03760374e-05,7.49784991e-06,4.54638781e-06,1.5117995e-05,7.09265925e-05,94020848.4,1e-06,5e-07,ff
2e-05,-1.6,0.05,0.864922268,8.04936512e-05,7.49784991e-06,4.54638781e-06,2.00560658e-05,8.0750991e-05,82582000.8,1e-06,5e-07,ff
2.5e-05,-1.6,0.05,0.806971982,8.88664933e-05,7.49784991e-06,4.54638781e-06,2.49704154e-05,8.87240622e-05,75160877.9,1e-06,5e-07,ff
3e-05,-1.6,0.05,0.753907395,9.59863633e-05,7.49784991e-06,4.54638781e-06,2.98562476e-05,9.53012682e-05,69973658.6,1e-06,5e-07,ff
5e-06,1.2375,1.65,1.1941625,5.68346719e-05,3.19250234e-06,4.45068561e-05,5.21918933e-06,5.91241138e-05,8741542540.0,2.5e-06,5e-07,ff
1e-05,1.2375,1.65,1.12401501,8.54807008e-05,3.19250234e-06,4.45068561e-05,1.03656843e-05,8.77944876e-05,5886883900.0,2.5e-06,5e-07,ff
1.5e-05,1.2375,1.65,1.0732896,0.000106614926,3.19250234e-06,4.45068561e-05,1.53524401e-05,0.000108803166,4750192270.0,2.5e-06,5e-07,ff
