i-sweep,v(VG),v(VD),v(Vbias),gmrp,Ipeak_unit,gmron_unit,Ibias_unit,gmbias_unit,Ron_Gm_unit,GmoverId,vswing,Ron_into_Gm_unit,width,length,corner
5e-06,0.4125,1.65,0.424085037,5.05991291e-05,5.84755709e-06,5.59395272e-05,5.62701697e-06,5.45688032e-05,5170886970.0,9.69764325,0.0115850371,15.3976308,1e-06,1e-06,tt
1e-05,0.4125,1.65,0.500525726,7.593837e-05,5.84755709e-06,5.59395272e-05,1.07478636e-05,7.96020654e-05,3544746130.0,7.40631521,0.0880257257,22.4612442,1e-06,1e-06,tt
1.5e-05,0.4125,1.65,0.557106465,9.51324312e-05,5.84755709e-06,5.59395272e-05,1.57850175e-05,9.84306916e-05,2866678160.0,6.23570368,0.144606465,27.774101,1e-06,1e-06,tt
2e-05,0.4125,1.65,0.603961505,0.000110866263,5.84755709e-06,5.59395272e-05,2.07579402e-05,0.000113776738,2480024640.0,5.48111887,0.191461505,32.1042813,1e-06,1e-06,tt
2.5e-05,0.4125,1.65,0.645039161,0.000124342971,5.84755709e-06,5.59395272e-05,2.57016192e-05,0.000126851439,2224406090.0,4.93554271,0.232539161,35.7935581,1e-06,1e-06,tt
3e-05,0.4125,1.65,0.682137485,0.000136154021,5.84755709e-06,5.59395272e-05,3.0620349e-05,0.000138249449,2041014390.0,4.51495339,0.269637485,39.0097244,1e-06,1e-06,tt
5e-06,0.825,1.65,0.424085037,5.05991291e-05,5.69026982e-05,0.000186210131,5.62701697e-06,5.45688032e-05,531381775.0,9.69764325,0.400914963,1.58232436,1e-06,1e-06,tt
1e-05,0.825,1.65,0.500525726,7.593837e-05,5.69026982e-05,0.000186210131,1.07478636e-05,7.96020654e-05,364272803.0,7.40631521,0.324474274,2.30821054,1e-06,1e-06,tt
1.5e-05,0.825,1.65,0.557106465,9.51324312e-05,5.69026982e-05,0.000186210131,1.57850175e-05,9.84306916e-05,294591728.0,6.23570368,0.267893535,2.85418172,1e-06,1e-06,tt
2e-05,0.825,1.65,0.603961505,0.000110866263,5.69026982e-05,0.000186210131,2.07579402e-05,0.000113776738,254857610.0,5.48111887,0.221038495,3.29916899,1e-06,1e-06,tt
2.5e-05,0.825,1.65,0.645039161,0.000124342971,5.69026982e-05,0.000186210131,2.57016192e-05,0.000126851439,228589188.0,4.93554271,0.179960839,3.67829437,1e-06,1e-06,tt
3e-05,0.825,1.65,0.682137485,0.000136154021,5.69026982e-05,0.000186210131,3.0620349e-05,0.000138249449,209743097.0,4.51495339,0.142862515,4.00880094,1e-06,1e-06,tt
5e-06,1.2375,1.65,0.424085037,5.05991291e-05,0.0001507484,0.000257959132,5.62701697e-06,5.45688032e-05,200579620.0,9.69764325,0.813414963,0.597276824,1e-06,1e-06,tt
1e-05,1.2375,1.65,0.500525726,7.593837e-05,0.0001507484,0.000257959132,1.07478636e-05,7.96020654e-05,137501330.0,7.40631521,0.736974274,0.871275637,1e-06,1e-06,tt
1.5e-05,1.2375,1.65,0.557106465,9.51324312e-05,0.0001507484,0.000257959132,1.57850175e-05,9.84306916e-05,111198953.0,6.23570368,0.680393535,1.07736229,1e-06,1e-06,tt
2e-05,1.2375,1.65,0.603961505,0.000110866263,0.0001507484,0.000257959132,2.07579402e-05,0.000113776738,96200594.5,5.48111887,0.633538495,1.24533075,1e-06,1e-06,tt
2.5e-05,1.2375,1.65,0.645039161,0.000124342971,0.0001507484,0.000257959132,2.57016192e-05,0.000126851439,86285105.7,4.93554271,0.592460839,1.38843845,1e-06,1e-06,tt
3e-05,1.2375,1.65,0.682137485,0.000136154021,0.0001507484,0.000257959132,3.0620349e-05,0.000138249449,79171309.1,4.51495339,0.555362515,1.51319411,1e-06,1e-06,tt
5e-06,1.65,1.65,0.424085037,5.05991291e-05,0.000262536106,0.000277343092,5.62701697e-06,5.45688032e-05,115172946.0,9.69764325,1.22591496,0.342956734,1e-06,1e-06,tt
1e-05,1.65,1.65,0.500525726,7.593837e-05,0.000262536106,0.000277343092,1.07478636e-05,7.96020654e-05,78953351.3,7.40631521,1.14947427,0.500287028,1e-06,1e-06,tt
1.5e-05,1.65,1.65,0.557106465,9.51324312e-05,0.000262536106,0.000277343092,1.57850175e-05,9.84306916e-05,63850509.8,6.23570368,1.09289353,0.618622116,1e-06,1e-06,tt
2e-05,1.65,1.65,0.603961505,0.000110866263,0.000262536106,0.000277343092,2.07579402e-05,0.000113776738,55238442.9,5.48111887,1.0460385,0.715069713,1e-06,1e-06,tt
2.5e-05,1.65,1.65,0.645039161,0.000124342971,0.000262536106,0.000277343092,2.57016192e-05,0.000126851439,49544962.8,4.93554271,1.00496084,0.797242246,1e-06,1e-06,tt
3e-05,1.65,1.65,0.682137485,0.000136154021,0.000262536106,0.000277343092,3.0620349e-05,0.000138249449,45460216.3,4.51495339,0.967862515,0.868877025,1e-06,1e-06,tt
5e-06,0.4125,1.6,0.424085037,5.05991291e-05,5.80566845e-06,5.56941597e-05,5.62701697e-06,5.45688032e-05,5050371470.0,9.69764325,0.0115850371,15.0387653,1e-06,1e-06,tt
1e-05,0.4125,1.6,0.500525726,7.593837e-05,5.80566845e-06,5.56941597e-05,1.07478636e-05,7.96020654e-05,3462130360.0,7.40631521,0.0880257257,21.9377503,1e-06,1e-06,tt
1.5e-05,0.4125,1.6,0.557106465,9.51324312e-05,5.80566845e-06,5.56941597e-05,1.57850175e-05,9.84306916e-05,2799865800.0,6.23570368,0.144606465,27.1267827,1e-06,1e-06,tt
2e-05,0.4125,1.6,0.603961505,0.000110866263,5.80566845e-06,5.56941597e-05,2.07579402e-05,0.000113776738,2422223840.0,5.48111887,0.191461505,31.3560415,1e-06,1e-06,tt
2.5e-05,0.4125,1.6,0.645039161,0.000124342971,5.80566845e-06,5.56941597e-05,2.57016192e-05,0.000126851439,2172562870.0,4.93554271,0.232539161,34.959334,1e-06,1e-06,tt
3e-05,0.4125,1.6,0.682137485,0.000136154021,5.80566845e-06,5.56941597e-05,3.0620349e-05,0.000138249449,1993445400.0,4.51495339,0.269637485,38.1005425,1e-06,1e-06,tt
5e-06,0.825,1.6,0.424085037,5.05991291e-05,5.67355954e-05,0.00018585033,5.62701697e-06,5.45688032e-05,516796944.0,9.69764325,0.400914963,1.53889431,1e-06,1e-06,tt
1e-05,0.825,1.6,0.500525726,7.593837e-05,5.67355954e-05,0.00018585033,1.07478636e-05,7.96020654e-05,354274611.0,7.40631521,0.324474274,2.24485711,1e-06,1e-06,tt
1.5e-05,0.825,1.6,0.557106465,9.51324312e-05,5.67355954e-05,0.00018585033,1.57850175e-05,9.84306916e-05,286506071.0,6.23570368,0.267893535,2.77584302,1e-06,1e-06,tt
2e-05,0.825,1.6,0.603961505,0.000110866263,5.67355954e-05,0.00018585033,2.07579402e-05,0.000113776738,247862535.0,5.48111887,0.221038495,3.20861673,1e-06,1e-06,tt
2.5e-05,0.825,1.6,0.645039161,0.000124342971,5.67355954e-05,0.00018585033,2.57016192e-05,0.000126851439,222315103.0,4.93554271,0.179960839,3.57733626,1e-06,1e-06,tt
3e-05,0.825,1.6,0.682137485,0.000136154021,5.67355954e-05,0.00018585033,3.0620349e-05,0.000138249449,203986280.0,4.51495339,0.142862515,3.89877142,1e-06,1e-06,tt
5e-06,1.2375,1.6,0.424085037,5.05991291e-05,0.000150407361,0.000257455256,5.62701697e-06,5.45688032e-05,194942469.0,9.69764325,0.813414963,0.580490772,1e-06,1e-06,tt
1e-05,1.2375,1.6,0.500525726,7.593837e-05,0.000150407361,0.000257455256,1.07478636e-05,7.96020654e-05,133636950.0,7.40631521,0.736974274,0.846789038,1e-06,1e-06,tt
1.5e-05,1.2375,1.6,0.557106465,9.51324312e-05,0.000150407361,0.000257455256,1.57850175e-05,9.84306916e-05,108073783.0,6.23570368,0.680393535,1.04708377,1e-06,1e-06,tt
2e-05,1.2375,1.6,0.603961505,0.000110866263,0.000150407361,0.000257455256,2.07579402e-05,0.000113776738,93496943.4,5.48111887,0.633538495,1.21033159,1e-06,1e-06,tt
2.5e-05,1.2375,1.6,0.645039161,0.000124342971,0.000150407361,0.000257455256,2.57016192e-05,0.000126851439,83860122.5,4.93554271,0.592460839,1.34941735,1e-06,1e-06,tt
3e-05,1.2375,1.6,0.682137485,0.000136154021,0.000150407361,0.000257455256,3.0620349e-05,0.000138249449,76946254.3,4.51495339,0.555362515,1.47066684,1e-06,1e-06,tt
5e-06,1.65,1.6,0.424085037,5.05991291e-05,0.00026189547,0.000276249213,5.62701697e-06,5.45688032e-05,111956050.0,9.69764325,1.22591496,0.333377608,1e-06,1e-06,tt
1e-05,1.65,1.6,0.500525726,7.593837e-05,0.00026189547,0.000276249213,1.07478636e-05,7.96020654e-05,76748104.9,7.40631521,1.14947427,0.486313508,1e-06,1e-06,tt
1.5e-05,1.65,1.6,0.557106465,9.51324312e-05,0.00026189547,0.000276249213,1.57850175e-05,9.84306916e-05,62067100.9,6.23570368,1.09289353,0.601343378,1e-06,1e-06,tt
2e-05,1.65,1.6,0.603961505,0.000110866263,0.00026189547,0.000276249213,2.07579402e-05,0.000113776738,53695577.6,5.48111887,1.0460385,0.695097097,1e-06,1e-06,tt
2.5e-05,1.65,1.6,0.645039161,0.000124342971,0.00026189547,0.000276249213,2.57016192e-05,0.000126851439,48161122.2,4.93554271,1.00496084,0.774974469,1e-06,1e-06,tt
3e-05,1.65,1.6,0.682137485,0.000136154021,0.00026189547,0.000276249213,3.0620349e-05,0.000138249449,44190466.8,4.51495339,0.967862515,0.844608416,1e-06,1e-06,tt
5e-06,0.4125,1.2375,0.424085037,5.05991291e-05,5.47398966e-06,5.37301359e-05,5.62701697e-06,5.45688032e-05,4142827080.0,9.69764325,0.0115850371,12.3363211,1e-06,1e-06,tt
1e-05,0.4125,1.2375,0.500525726,7.593837e-05,5.47398966e-06,5.37301359e-05,1.07478636e-05,7.96020654e-05,2839990580.0,7.40631521,0.0880257257,17.9955685,1e-06,1e-06,tt
1.5e-05,0.4125,1.2375,0.557106465,9.51324312e-05,5.47398966e-06,5.37301359e-05,1.57850175e-05,9.84306916e-05,2296734000.0,6.23570368,0.144606465,22.2521394,1e-06,1e-06,tt
2e-05,0.4125,1.2375,0.603961505,0.000110866263,5.47398966e-06,5.37301359e-05,2.07579402e-05,0.000113776738,1986953740.0,5.48111887,0.191461505,25.7214065,1e-06,1e-06,tt
2.5e-05,0.4125,1.2375,0.645039161,0.000124342971,5.47398966e-06,5.37301359e-05,2.57016192e-05,0.000126851439,1782156490.0,4.93554271,0.232539161,28.6771926,1e-06,1e-06,tt
3e-05,0.4125,1.2375,0.682137485,0.000136154021,5.47398966e-06,5.37301359e-05,3.0620349e-05,0.000138249449,1635226160.0,4.51495339,0.269637485,31.2539306,1e-06,1e-06,tt
5e-06,0.825,1.2375,0.424085037,5.05991291e-05,5.53631714e-05,0.000182766512,5.62701697e-06,5.45688032e-05,409618742.0,9.69764325,0.400914963,1.21974396,1e-06,1e-06,tt
1e-05,0.825,1.2375,0.500525726,7.593837e-05,5.53631714e-05,0.000182766512,1.07478636e-05,7.96020654e-05,280801816.0,7.40631521,0.324474274,1.77929756,1e-06,1e-06,tt
1.5e-05,0.825,1.2375,0.557106465,9.51324312e-05,5.53631714e-05,0.000182766512,1.57850175e-05,9.84306916e-05,227087752.0,6.23570368,0.267893535,2.20016263,1e-06,1e-06,tt
2e-05,0.825,1.2375,0.603961505,0.000110866263,5.53631714e-05,0.000182766512,2.07579402e-05,0.000113776738,196458476.0,5.48111887,0.221038495,2.54318367,1e-06,1e-06,tt
2.5e-05,0.825,1.2375,0.645039161,0.000124342971,5.53631714e-05,0.000182766512,2.57016192e-05,0.000126851439,176209309.0,4.93554271,0.179960839,2.83543468,1e-06,1e-06,tt
3e-05,0.825,1.2375,0.682137485,0.000136154021,5.53631714e-05,0.000182766512,3.0620349e-05,0.000138249449,161681690.0,4.51495339,0.142862515,3.0902076,1e-06,1e-06,tt
5e-06,1.2375,1.2375,0.424085037,5.05991291e-05,0.000147429028,0.000252288949,5.62701697e-06,5.45688032e-05,153821760.0,9.69764325,0.813414963,0.458043404,1e-06,1e-06,tt
1e-05,1.2375,1.2375,0.500525726,7.593837e-05,0.000147429028,0.000252288949,1.07478636e-05,7.96020654e-05,105447884.0,7.40631521,0.736974274,0.668169336,1e-06,1e-06,tt
1.5e-05,1.2375,1.2375,0.557106465,9.51324312e-05,0.000147429028,0.000252288949,1.57850175e-05,9.84306916e-05,85276951.8,6.23570368,0.680393535,0.826214364,1e-06,1e-06,tt
2e-05,1.2375,1.2375,0.603961505,0.000110866263,0.000147429028,0.000252288949,2.07579402e-05,0.000113776738,73774916.5,5.48111887,0.633538495,0.955027072,1e-06,1e-06,tt
2.5e-05,1.2375,1.2375,0.645039161,0.000124342971,0.000147429028,0.000252288949,2.57016192e-05,0.000126851439,66170864.1,4.93554271,0.592460839,1.06477441,1e-06,1e-06,tt
3e-05,1.2375,1.2375,0.682137485,0.000136154021,0.000147429028,0.000252288949,3.0620349e-05,0.000138249449,60715391.1,4.51495339,0.555362515,1.16044781,1e-06,1e-06,tt
5e-06,1.65,1.2375,0.424085037,5.05991291e-05,0.000255135839,0.000260362332,5.62701697e-06,5.45688032e-05,88885170.5,9.69764325,1.22591496,0.264678197,1e-06,1e-06,tt
1e-05,1.65,1.2375,0.500525726,7.593837e-05,0.000255135839,0.000260362332,1.07478636e-05,7.96020654e-05,60932556.9,7.40631521,1.14947427,0.386098465,1e-06,1e-06,tt
1.5e-05,1.65,1.2375,0.557106465,9.51324312e-05,0.000255135839,0.000260362332,1.57850175e-05,9.84306916e-05,49276880.0,6.23570368,1.09289353,0.477424031,1e-06,1e-06,tt
2e-05,1.65,1.2375,0.603961505,0.000110866263,0.000255135839,0.000260362332,2.07579402e-05,0.000113776738,42630483.7,5.48111887,1.0460385,0.55185784,1e-06,1e-06,tt
2.5e-05,1.65,1.2375,0.645039161,0.000124342971,0.000255135839,0.000260362332,2.57016192e-05,0.000126851439,38236518.3,4.93554271,1.00496084,0.615274813,1e-06,1e-06,tt
3e-05,1.65,1.2375,0.682137485,0.000136154021,0.000255135839,0.000260362332,3.0620349e-05,0.000138249449,35084099.3,4.51495339,0.967862515,0.670559233,1e-06,1e-06,tt
5e-06,0.4125,0.825,0.424085037,5.05991291e-05,5.0160809e-06,5.09097291e-05,5.62701697e-06,5.45688032e-05,3014012070.0,9.69764325,0.0115850371,8.97498736,1e-06,1e-06,tt
1e-05,0.4125,0.825,0.500525726,7.593837e-05,5.0160809e-06,5.09097291e-05,1.07478636e-05,7.96020654e-05,2066165380.0,7.40631521,0.0880257257,13.0922338,1e-06,1e-06,tt
1.5e-05,0.4125,0.825,0.557106465,9.51324312e-05,5.0160809e-06,5.09097291e-05,1.57850175e-05,9.84306916e-05,1670932400.0,6.23570368,0.144606465,16.1889974,1e-06,1e-06,tt
2e-05,0.4125,0.825,0.603961505,0.000110866263,5.0160809e-06,5.09097291e-05,2.07579402e-05,0.000113776738,1445559390.0,5.48111887,0.191461505,18.7129775,1e-06,1e-06,tt
2.5e-05,0.4125,0.825,0.645039161,0.000124342971,5.0160809e-06,5.09097291e-05,2.57016192e-05,0.000126851439,1296564180.0,4.93554271,0.232539161,20.8633871,1e-06,1e-06,tt
3e-05,0.4125,0.825,0.682137485,0.000136154021,5.0160809e-06,5.09097291e-05,3.0620349e-05,0.000138249449,1189668630.0,4.51495339,0.269637485,22.7380294,1e-06,1e-06,tt
5e-06,0.825,0.825,0.424085037,5.05991291e-05,5.32637362e-05,0.000177364779,5.62701697e-06,5.45688032e-05,283842807.0,9.69764325,0.400914963,0.845214133,1e-06,1e-06,tt
1e-05,0.825,0.825,0.500525726,7.593837e-05,5.32637362e-05,0.000177364779,1.07478636e-05,7.96020654e-05,194579904.0,7.40631521,0.324474274,1.23295339,1e-06,1e-06,tt
1.5e-05,0.825,0.825,0.557106465,9.51324312e-05,5.32637362e-05,0.000177364779,1.57850175e-05,9.84306916e-05,157359072.0,6.23570368,0.267893535,1.52458927,1e-06,1e-06,tt
2e-05,0.825,0.825,0.603961505,0.000110866263,5.32637362e-05,0.000177364779,2.07579402e-05,0.000113776738,136134702.0,5.48111887,0.221038495,1.7622836,1e-06,1e-06,tt
2.5e-05,0.825,0.825,0.645039161,0.000124342971,5.32637362e-05,0.000177364779,2.57016192e-05,0.000126851439,122103165.0,4.93554271,0.179960839,1.96479715,1e-06,1e-06,tt
3e-05,0.825,0.825,0.682137485,0.000136154021,5.32637362e-05,0.000177364779,3.0620349e-05,0.000138249449,112036340.0,4.51495339,0.142862515,2.14134049,1e-06,1e-06,tt
5e-06,1.2375,0.825,0.424085037,5.05991291e-05,0.000141135502,0.000232244803,5.62701697e-06,5.45688032e-05,107120662.0,9.69764325,0.813414963,0.318979011,1e-06,1e-06,tt
1e-05,1.2375,0.825,0.500525726,7.593837e-05,0.000141135502,0.000232244803,1.07478636e-05,7.96020654e-05,73433350.1,7.40631521,0.736974274,0.465309601,1e-06,1e-06,tt
1.5e-05,1.2375,0.825,0.557106465,9.51324312e-05,0.000141135502,0.000232244803,1.57850175e-05,9.84306916e-05,59386419.4,6.23570368,0.680393535,0.575371325,1e-06,1e-06,tt
2e-05,1.2375,0.825,0.603961505,0.000110866263,0.000141135502,0.000232244803,2.07579402e-05,0.000113776738,51376462.7,5.48111887,0.633538495,0.665075816,1e-06,1e-06,tt
2.5e-05,1.2375,0.825,0.645039161,0.000124342971,0.000141135502,0.000232244803,2.57016192e-05,0.000126851439,46081040.7,4.93554271,0.592460839,0.74150328,1e-06,1e-06,tt
3e-05,1.2375,0.825,0.682137485,0.000136154021,0.000141135502,0.000232244803,3.0620349e-05,0.000138249449,42281878.1,4.51495339,0.555362515,0.808129733,1e-06,1e-06,tt
5e-06,1.65,0.825,0.424085037,5.05991291e-05,0.000229790029,0.000184107869,5.62701697e-06,5.45688032e-05,65792795.6,9.69764325,1.22591496,0.195914779,1e-06,1e-06,tt
1e-05,1.65,0.825,0.500525726,7.593837e-05,0.000229790029,0.000184107869,1.07478636e-05,7.96020654e-05,45102273.3,7.40631521,1.14947427,0.285790051,1e-06,1e-06,tt
1.5e-05,1.65,0.825,0.557106465,9.51324312e-05,0.000229790029,0.000184107869,1.57850175e-05,9.84306916e-05,36474742.3,6.23570368,1.09289353,0.353389226,1e-06,1e-06,tt
2e-05,1.65,0.825,0.603961505,0.000110866263,0.000229790029,0.000184107869,2.07579402e-05,0.000113776738,31555080.4,5.48111887,1.0460385,0.408485126,1e-06,1e-06,tt
2.5e-05,1.65,0.825,0.645039161,0.000124342971,0.000229790029,0.000184107869,2.57016192e-05,0.000126851439,28302667.6,4.93554271,1.00496084,0.455426364,1e-06,1e-06,tt
3e-05,1.65,0.825,0.682137485,0.000136154021,0.000229790029,0.000184107869,3.0620349e-05,0.000138249449,25969247.2,4.51495339,0.967862515,0.496347886,1e-06,1e-06,tt
5e-06,0.4125,0.4125,0.424085037,5.05991291e-05,4.4145434e-06,4.69139854e-05,5.62701697e-06,5.45688032e-05,1712354710.0,9.69764325,0.0115850371,5.09897157,1e-06,1e-06,tt
1e-05,0.4125,0.4125,0.500525726,7.593837e-05,4.4145434e-06,4.69139854e-05,1.07478636e-05,7.96020654e-05,1173853300.0,7.40631521,0.0880257257,7.43810831,1e-06,1e-06,tt
1.5e-05,0.4125,0.4125,0.557106465,9.51324312e-05,4.4145434e-06,4.69139854e-05,1.57850175e-05,9.84306916e-05,949309059.0,6.23570368,0.144606465,9.19747674,1e-06,1e-06,tt
2e-05,0.4125,0.4125,0.603961505,0.000110866263,4.4145434e-06,4.69139854e-05,2.07579402e-05,0.000113776738,821267588.0,5.48111887,0.191461505,10.6314289,1e-06,1e-06,tt
2.5e-05,0.4125,0.4125,0.645039161,0.000124342971,4.4145434e-06,4.69139854e-05,2.57016192e-05,0.000126851439,736618739.0,4.93554271,0.232539161,11.853144,1e-06,1e-06,tt
3e-05,0.4125,0.4125,0.682137485,0.000136154021,4.4145434e-06,4.69139854e-05,3.0620349e-05,0.000138249449,675888028.0,4.51495339,0.269637485,12.9181871,1e-06,1e-06,tt
5e-06,0.825,0.4125,0.424085037,5.05991291e-05,4.86809663e-05,0.000150897868,5.62701697e-06,5.45688032e-05,155281720.0,9.69764325,0.400914963,0.462390807,1e-06,1e-06,tt
1e-05,0.825,0.4125,0.500525726,7.593837e-05,4.86809663e-05,0.000150897868,1.07478636e-05,7.96020654e-05,106448716.0,7.40631521,0.324474274,0.674511096,1e-06,1e-06,tt
1.5e-05,0.825,0.4125,0.557106465,9.51324312e-05,4.86809663e-05,0.000150897868,1.57850175e-05,9.84306916e-05,86086336.4,6.23570368,0.267893535,0.834056169,1e-06,1e-06,tt
2e-05,0.825,0.4125,0.603961505,0.000110866263,4.86809663e-05,0.000150897868,2.07579402e-05,0.000113776738,74475132.5,5.48111887,0.221038495,0.96409147,1e-06,1e-06,tt
2.5e-05,0.825,0.4125,0.645039161,0.000124342971,4.86809663e-05,0.000150897868,2.57016192e-05,0.000126851439,66798908.1,4.93554271,0.179960839,1.07488044,1e-06,1e-06,tt
3e-05,0.825,0.4125,0.682137485,0.000136154021,4.86809663e-05,0.000150897868,3.0620349e-05,0.000138249449,61291655.9,4.51495339,0.142862515,1.1714619,1e-06,1e-06,tt
5e-06,1.2375,0.4125,0.424085037,5.05991291e-05,0.000106067634,0.000116395285,5.62701697e-06,5.45688032e-05,71268339.8,9.69764325,0.813414963,0.212219604,1e-06,1e-06,tt
1e-05,1.2375,0.4125,0.500525726,7.593837e-05,0.000106067634,0.000116395285,1.07478636e-05,7.96020654e-05,48855868.1,7.40631521,0.736974274,0.309574662,1e-06,1e-06,tt
1.5e-05,1.2375,0.4125,0.557106465,9.51324312e-05,0.000106067634,0.000116395285,1.57850175e-05,9.84306916e-05,39510318.8,6.23570368,0.680393535,0.382799716,1e-06,1e-06,tt
2e-05,1.2375,0.4125,0.603961505,0.000110866263,0.000106067634,0.000116395285,2.07579402e-05,0.000113776738,34181222.6,5.48111887,0.633538495,0.44248092,1e-06,1e-06,tt
2.5e-05,1.2375,0.4125,0.645039161,0.000124342971,0.000106067634,0.000116395285,2.57016192e-05,0.000126851439,30658130.7,4.93554271,0.592460839,0.493328799,1e-06,1e-06,tt
3e-05,1.2375,0.4125,0.682137485,0.000136154021,0.000106067634,0.000116395285,3.0620349e-05,0.000138249449,28130513.7,4.51495339,0.555362515,0.537655977,1e-06,1e-06,tt
5e-06,1.65,0.4125,0.424085037,5.05991291e-05,0.000143935451,6.93340226e-05,5.62701697e-06,5.45688032e-05,52518432.2,9.69764325,1.22591496,0.156386986,1e-06,1e-06,tt
1e-05,1.65,0.4125,0.500525726,7.593837e-05,0.000143935451,6.93340226e-05,1.07478636e-05,7.96020654e-05,36002432.5,7.40631521,1.14947427,0.228129011,1e-06,1e-06,tt
1.5e-05,1.65,0.4125,0.557106465,9.51324312e-05,0.000143935451,6.93340226e-05,1.57850175e-05,9.84306916e-05,29115593.3,6.23570368,1.09289353,0.282089368,1e-06,1e-06,tt
2e-05,1.65,0.4125,0.603961505,0.000110866263,0.000143935451,6.93340226e-05,2.07579402e-05,0.000113776738,25188523.1,5.48111887,1.0460385,0.326069111,1e-06,1e-06,tt
