i-sweep,v(VG),v(VD),v(Vbias),gmrp,Ipeak_unit,gmron_unit,Ibias_unit,gmbias_unit,Ron_Gm_unit,GmoverId,vswing,Ron_into_Gm_unit,width,length,corner
5e-06,0.4125,1.65,0.698379097,1.85171683e-05,1.18478472e-06,8.83671112e-06,5.03900671e-06,1.86339671e-05,74737604300.0,3.6979445,0.285879097,25.9507446,1e-06,1e-05,ff
1e-05,0.4125,1.65,0.923459262,2.49613249e-05,1.18478472e-06,8.83671112e-06,9.96817972e-06,2.48194129e-05,56111644200.0,2.4898641,0.510959262,34.5649554,1e-06,1e-05,ff
1.5e-05,0.4125,1.65,1.10464947,2.88058893e-05,1.18478472e-06,8.83671112e-06,1.477368e-05,2.77763865e-05,50138201400.0,1.88012644,0.692149469,38.6830087,1e-06,1e-05,ff
2e-05,0.4125,1.65,1.26725715,3.13092503e-05,1.18478472e-06,8.83671112e-06,1.92835167e-05,2.6964381e-05,51648063500.0,1.39831242,0.85475715,37.5521627,1e-06,1e-05,ff
2.5e-05,0.4125,1.65,1.41926671,3.29517235e-05,1.18478472e-06,8.83671112e-06,2.31200751e-05,2.32467097e-05,59907749600.0,1.00547726,1.00676671,32.3747177,1e-06,1e-05,ff
3e-05,0.4125,1.65,1.56489049,3.39970295e-05,1.18478472e-06,8.83671112e-06,2.62200373e-05,1.93300518e-05,72046266400.0,0.737224421,1.15239049,26.9201525,1e-06,1e-05,ff
5e-06,0.825,1.65,0.698379116,1.85171689e-05,7.86849177e-06,2.28676023e-05,5.03900706e-06,1.86339677e-05,11253486900.0,3.69794436,0.126620884,3.90748922,1e-06,1e-05,ff
1e-05,0.825,1.65,0.923459262,2.49613249e-05,7.86849177e-06,2.28676023e-05,9.96817971e-06,2.48194129e-05,8448915100.0,2.48986411,0.0984592617,5.2045592,1e-06,1e-05,ff
1.5e-05,0.825,1.65,1.10464947,2.88058893e-05,7.86849177e-06,2.28676023e-05,1.477368e-05,2.77763865e-05,7549474140.0,1.88012644,0.279649469,5.82462804,1e-06,1e-05,ff
2e-05,0.825,1.65,1.26725715,3.13092503e-05,7.86849177e-06,2.28676023e-05,1.92835167e-05,2.6964381e-05,7776819040.0,1.39831242,0.44225715,5.65435283,1e-06,1e-05,ff
2.5e-05,0.825,1.65,1.41926671,3.29517235e-05,7.86849177e-06,2.28676023e-05,2.31200751e-05,2.32467097e-05,9020507190.0,1.00547726,0.594266712,4.87476789,1e-06,1e-05,ff
3e-05,0.825,1.65,1.56489049,3.39970295e-05,7.86849177e-06,2.28676023e-05,2.62200373e-05,1.93300518e-05,10848243700.0,0.737224421,0.739890489,4.05345604,1e-06,1e-05,ff
5e-06,1.2375,1.65,0.698379116,1.85171689e-05,1.92341836e-05,3.12238202e-05,5.03900706e-06,1.86339677e-05,4603677030.0,3.69794436,0.539120884,1.59851062,1e-06,1e-05,ff
1e-05,1.2375,1.65,0.923459262,2.49613249e-05,1.92341836e-05,3.12238202e-05,9.96817971e-06,2.48194129e-05,3456357720.0,2.48986411,0.314040738,2.12912761,1e-06,1e-05,ff
1.5e-05,1.2375,1.65,1.10464947,2.88058893e-05,1.92341836e-05,3.12238202e-05,1.477368e-05,2.77763865e-05,3088406370.0,1.88012644,0.132850531,2.38279091,1e-06,1e-05,ff
2e-05,1.2375,1.65,1.26725715,3.13092503e-05,1.92341836e-05,3.12238202e-05,1.92835167e-05,2.6964381e-05,3181410660.0,1.39831242,0.0297571505,2.31313321,1e-06,1e-05,ff
2.5e-05,1.2375,1.65,1.41926671,3.29517235e-05,1.92341836e-05,3.12238202e-05,2.31200751e-05,2.32467097e-05,3690189730.0,1.00547726,0.181766712,1.99421363,1e-06,1e-05,ff
3e-05,1.2375,1.65,1.56489049,3.39970295e-05,1.92341836e-05,3.12238202e-05,2.62200373e-05,1.93300518e-05,4437896500.0,0.737224421,0.327390489,1.65822403,1e-06,1e-05,ff
5e-06,1.65,1.65,0.698379116,1.85171689e-05,3.29258097e-05,3.44063049e-05,5.03900705e-06,1.86339677e-05,2689317890.0,3.69794436,0.951620884,0.933797742,1e-06,1e-05,ff
1e-05,1.65,1.65,0.923459262,2.49613249e-05,3.29258097e-05,3.44063049e-05,9.96817971e-06,2.48194129e-05,2019091390.0,2.48986411,0.726540738,1.24376687,1e-06,1e-05,ff
1.5e-05,1.65,1.65,1.10464947,2.88058893e-05,3.29258097e-05,3.44063049e-05,1.477368e-05,2.77763865e-05,1804146220.0,1.88012644,0.545350531,1.39194869,1e-06,1e-05,ff
2e-05,1.65,1.65,1.26725715,3.13092503e-05,3.29258097e-05,3.44063049e-05,1.92835167e-05,2.6964381e-05,1858476290.0,1.39831242,0.38274285,1.35125694,1e-06,1e-05,ff
2.5e-05,1.65,1.65,1.41926671,3.29517235e-05,3.29258097e-05,3.44063049e-05,2.31200751e-05,2.32467097e-05,2155688420.0,1.00547726,0.230733288,1.16495453,1e-06,1e-05,ff
3e-05,1.65,1.65,1.56489049,3.39970295e-05,3.29258097e-05,3.44063049e-05,2.62200373e-05,1.93300518e-05,2592474320.0,0.737224421,0.0851095113,0.968680369,1e-06,1e-05,ff
5e-06,0.4125,1.6,0.698379097,1.85171683e-05,1.1816208e-06,8.82270603e-06,5.03900671e-06,1.86339671e-05,72666882600.0,3.6979445,0.285879097,25.2317388,1e-06,1e-05,ff
1e-05,0.4125,1.6,0.923459262,2.49613249e-05,1.1816208e-06,8.82270603e-06,9.96817972e-06,2.48194129e-05,54556983700.0,2.4898641,0.510959262,33.6072795,1e-06,1e-05,ff
1.5e-05,0.4125,1.6,1.10464947,2.88058893e-05,1.1816208e-06,8.82270603e-06,1.477368e-05,2.77763865e-05,48749044500.0,1.88012644,0.692149469,37.6112357,1e-06,1e-05,ff
2e-05,0.4125,1.6,1.26725715,3.13092503e-05,1.1816208e-06,8.82270603e-06,1.92835167e-05,2.6964381e-05,50217073500.0,1.39831242,0.85475715,36.5117215,1e-06,1e-05,ff
2.5e-05,0.4125,1.6,1.41926671,3.29517235e-05,1.1816208e-06,8.82270603e-06,2.31200751e-05,2.32467097e-05,58247912100.0,1.00547726,1.00676671,31.4777257,1e-06,1e-05,ff
3e-05,0.4125,1.6,1.56489049,3.39970295e-05,1.1816208e-06,8.82270603e-06,2.62200373e-05,1.93300518e-05,70050112500.0,0.737224421,1.15239049,26.1742878,1e-06,1e-05,ff
5e-06,0.825,1.6,0.698379116,1.85171689e-05,7.85848373e-06,2.28484347e-05,5.03900706e-06,1.86339677e-05,10926369600.0,3.69794436,0.126620884,3.79390598,1e-06,1e-05,ff
1e-05,0.825,1.6,0.923459262,2.49613249e-05,7.85848373e-06,2.28484347e-05,9.96817971e-06,2.48194129e-05,8203321290.0,2.48986411,0.0984592617,5.05327261,1e-06,1e-05,ff
1.5e-05,0.825,1.6,1.10464947,2.88058893e-05,7.85848373e-06,2.28484347e-05,1.477368e-05,2.77763865e-05,7330025360.0,1.88012644,0.279649469,5.65531724,1e-06,1e-05,ff
2e-05,0.825,1.6,1.26725715,3.13092503e-05,7.85848373e-06,2.28484347e-05,1.92835167e-05,2.6964381e-05,7550761780.0,1.39831242,0.44225715,5.4899916,1e-06,1e-05,ff
2.5e-05,0.825,1.6,1.41926671,3.29517235e-05,7.85848373e-06,2.28484347e-05,2.31200751e-05,2.32467097e-05,8758298290.0,1.00547726,0.594266712,4.7330677,1e-06,1e-05,ff
3e-05,0.825,1.6,1.56489049,3.39970295e-05,7.85848373e-06,2.28484347e-05,2.62200373e-05,1.93300518e-05,10532906000.0,0.737224421,0.739890489,3.93562982,1e-06,1e-05,ff
5e-06,1.2375,1.6,0.698379116,1.85171689e-05,1.92148931e-05,3.11971875e-05,5.03900706e-06,1.86339677e-05,4468653390.0,3.69794436,0.539120884,1.55162707,1e-06,1e-05,ff
1e-05,1.2375,1.6,0.923459262,2.49613249e-05,1.92148931e-05,3.11971875e-05,9.96817971e-06,2.48194129e-05,3354984400.0,2.48986411,0.314040738,2.06668131,1e-06,1e-05,ff
1.5e-05,1.2375,1.6,1.10464947,2.88058893e-05,1.92148931e-05,3.11971875e-05,1.477368e-05,2.77763865e-05,2997824890.0,1.88012644,0.132850531,2.31290479,1e-06,1e-05,ff
2e-05,1.2375,1.6,1.26725715,3.13092503e-05,1.92148931e-05,3.11971875e-05,1.92835167e-05,2.6964381e-05,3088101410.0,1.39831242,0.0297571505,2.24529012,1e-06,1e-05,ff
2.5e-05,1.2375,1.6,1.41926671,3.29517235e-05,1.92148931e-05,3.11971875e-05,2.31200751e-05,2.32467097e-05,3581958230.0,1.00547726,0.181766712,1.9357243,1e-06,1e-05,ff
3e-05,1.2375,1.6,1.56489049,3.39970295e-05,1.92148931e-05,3.11971875e-05,2.62200373e-05,1.93300518e-05,4307735120.0,0.737224421,0.327390489,1.60958912,1e-06,1e-05,ff
5e-06,1.65,1.6,0.698379116,1.85171689e-05,3.2889662e-05,3.43326905e-05,5.03900705e-06,1.86339677e-05,2610689560.0,3.69794436,0.951620884,0.90649604,1e-06,1e-05,ff
1e-05,1.65,1.6,0.923459262,2.49613249e-05,3.2889662e-05,3.43326905e-05,9.96817971e-06,2.48194129e-05,1960058660.0,2.48986411,0.726540738,1.20740251,1e-06,1e-05,ff
1.5e-05,1.65,1.6,1.10464947,2.88058893e-05,3.2889662e-05,3.43326905e-05,1.477368e-05,2.77763865e-05,1751397900.0,1.88012644,0.545350531,1.35125191,1e-06,1e-05,ff
2e-05,1.65,1.6,1.26725715,3.13092503e-05,3.2889662e-05,3.43326905e-05,1.92835167e-05,2.6964381e-05,1804139510.0,1.39831242,0.38274285,1.31174986,1e-06,1e-05,ff
2.5e-05,1.65,1.6,1.41926671,3.29517235e-05,3.2889662e-05,3.43326905e-05,2.31200751e-05,2.32467097e-05,2092661960.0,1.00547726,0.230733288,1.13089443,1e-06,1e-05,ff
3e-05,1.65,1.6,1.56489049,3.39970295e-05,3.2889662e-05,3.43326905e-05,2.62200373e-05,1.93300518e-05,2516677430.0,0.737224421,0.0851095113,0.940358794,1e-06,1e-05,ff
5e-06,0.4125,1.2375,0.698379097,1.85171683e-05,1.15607317e-06,8.70853704e-06,5.03900671e-06,1.86339671e-05,57445307500.0,3.6979445,0.285879097,19.9464315,1e-06,1e-05,ff
1e-05,0.4125,1.2375,0.923459262,2.49613249e-05,1.15607317e-06,8.70853704e-06,9.96817972e-06,2.48194129e-05,43128899900.0,2.4898641,0.510959262,26.5675427,1e-06,1e-05,ff
1.5e-05,0.4125,1.2375,1.10464947,2.88058893e-05,1.15607317e-06,8.70853704e-06,1.477368e-05,2.77763865e-05,38537553100.0,1.88012644,0.692149469,29.7327878,1e-06,1e-05,ff
2e-05,0.4125,1.2375,1.26725715,3.13092503e-05,1.15607317e-06,8.70853704e-06,1.92835167e-05,2.6964381e-05,39698073200.0,1.39831242,0.85475715,28.8635895,1e-06,1e-05,ff
2.5e-05,0.4125,1.2375,1.41926671,3.29517235e-05,1.15607317e-06,8.70853704e-06,2.31200751e-05,2.32467097e-05,46046687300.0,1.00547726,1.00676671,24.8840678,1e-06,1e-05,ff
3e-05,0.4125,1.2375,1.56489049,3.39970295e-05,1.15607317e-06,8.70853704e-06,2.62200373e-05,1.93300518e-05,55376673700.0,0.737224421,1.15239049,20.6915441,1e-06,1e-05,ff
5e-06,0.825,1.2375,0.698379116,1.85171689e-05,7.77486999e-06,2.26801422e-05,5.03900706e-06,1.86339677e-05,8541747580.0,3.69794436,0.126620884,2.9659062,1e-06,1e-05,ff
1e-05,0.825,1.2375,0.923459262,2.49613249e-05,7.77486999e-06,2.26801422e-05,9.96817971e-06,2.48194129e-05,6412990090.0,2.48986411,0.0984592617,3.95042277,1e-06,1e-05,ff
1.5e-05,0.825,1.2375,1.10464947,2.88058893e-05,7.77486999e-06,2.26801422e-05,1.477368e-05,2.77763865e-05,5730286350.0,1.88012644,0.279649469,4.42107436,1e-06,1e-05,ff
2e-05,0.825,1.2375,1.26725715,3.13092503e-05,7.77486999e-06,2.26801422e-05,1.92835167e-05,2.6964381e-05,5902848220.0,1.39831242,0.44225715,4.29183016,1e-06,1e-05,ff
2.5e-05,0.825,1.2375,1.41926671,3.29517235e-05,7.77486999e-06,2.26801422e-05,2.31200751e-05,2.32467097e-05,6846846320.0,1.00547726,0.594266712,3.70010088,1e-06,1e-05,ff
3e-05,0.825,1.2375,1.56489049,3.39970295e-05,7.77486999e-06,2.26801422e-05,2.62200373e-05,1.93300518e-05,8234155310.0,0.737224421,0.739890489,3.07669957,1e-06,1e-05,ff
5e-06,1.2375,1.2375,0.698379116,1.85171689e-05,1.90440271e-05,3.09125388e-05,5.03900706e-06,1.86339677e-05,3487233910.0,3.69794436,0.539120884,1.21085393,1e-06,1e-05,ff
1e-05,1.2375,1.2375,0.923459262,2.49613249e-05,1.90440271e-05,3.09125388e-05,9.96817971e-06,2.48194129e-05,2618152350.0,2.48986411,0.314040738,1.61279037,1e-06,1e-05,ff
1.5e-05,1.2375,1.2375,1.10464947,2.88058893e-05,1.90440271e-05,3.09125388e-05,1.477368e-05,2.77763865e-05,2339433320.0,1.88012644,0.132850531,1.80493749,1e-06,1e-05,ff
2e-05,1.2375,1.2375,1.26725715,3.13092503e-05,1.90440271e-05,3.09125388e-05,1.92835167e-05,2.6964381e-05,2409883020.0,1.39831242,0.0297571505,1.75217255,1e-06,1e-05,ff
2.5e-05,1.2375,1.2375,1.41926671,3.29517235e-05,1.90440271e-05,3.09125388e-05,2.31200751e-05,2.32467097e-05,2795277480.0,1.00547726,0.181766712,1.51059454,1e-06,1e-05,ff
3e-05,1.2375,1.2375,1.56489049,3.39970295e-05,1.90440271e-05,3.09125388e-05,2.62200373e-05,1.93300518e-05,3361657010.0,0.737224421,0.327390489,1.25608618,1e-06,1e-05,ff
5e-06,1.65,1.2375,0.698379116,1.85171689e-05,3.23676362e-05,3.20164689e-05,5.03900705e-06,1.86339677e-05,2051770990.0,3.69794436,0.951620884,0.712425676,1e-06,1e-05,ff
1e-05,1.65,1.2375,0.923459262,2.49613249e-05,3.23676362e-05,3.20164689e-05,9.96817971e-06,2.48194129e-05,1540432670.0,2.48986411,0.726540738,0.948911538,1e-06,1e-05,ff
1.5e-05,1.65,1.2375,1.10464947,2.88058893e-05,3.23676362e-05,3.20164689e-05,1.477368e-05,2.77763865e-05,1376443780.0,1.88012644,0.545350531,1.06196443,1e-06,1e-05,ff
2e-05,1.65,1.2375,1.26725715,3.13092503e-05,3.23676362e-05,3.20164689e-05,1.92835167e-05,2.6964381e-05,1417894010.0,1.39831242,0.38274285,1.03091932,1e-06,1e-05,ff
2.5e-05,1.65,1.2375,1.41926671,3.29517235e-05,3.23676362e-05,3.20164689e-05,2.31200751e-05,2.32467097e-05,1644647130.0,1.00547726,0.230733288,0.888782953,1e-06,1e-05,ff
3e-05,1.65,1.2375,1.56489049,3.39970295e-05,3.23676362e-05,3.20164689e-05,2.62200373e-05,1.93300518e-05,1977885770.0,0.737224421,0.0851095113,0.739038804,1e-06,1e-05,ff
5e-06,0.4125,0.825,0.698379097,1.85171683e-05,1.11905116e-06,8.53553327e-06,5.03900671e-06,1.86339671e-05,39563862300.0,3.6979445,0.285879097,13.7375515,1e-06,1e-05,ff
1e-05,0.4125,0.825,0.923459262,2.49613249e-05,1.11905116e-06,8.53553327e-06,9.96817972e-06,2.48194129e-05,29703833600.0,2.4898641,0.510959262,18.2976582,1e-06,1e-05,ff
1.5e-05,0.4125,0.825,1.10464947,2.88058893e-05,1.11905116e-06,8.53553327e-06,1.477368e-05,2.77763865e-05,26541670900.0,1.88012644,0.692149469,20.477633,1e-06,1e-05,ff
2e-05,0.4125,0.825,1.26725715,3.13092503e-05,1.11905116e-06,8.53553327e-06,1.92835167e-05,2.6964381e-05,27340946900.0,1.39831242,0.85475715,19.8789968,1e-06,1e-05,ff
2.5e-05,0.4125,0.825,1.41926671,3.29517235e-05,1.11905116e-06,8.53553327e-06,2.31200751e-05,2.32467097e-05,31713378800.0,1.00547726,1.00676671,17.1382116,1e-06,1e-05,ff
3e-05,0.4125,0.825,1.56489049,3.39970295e-05,1.11905116e-06,8.53553327e-06,2.62200373e-05,1.93300518e-05,38139148200.0,0.737224421,1.15239049,14.2507272,1e-06,1e-05,ff
5e-06,0.825,0.825,0.698379116,1.85171689e-05,7.64137932e-06,2.23684025e-05,5.03900706e-06,1.86339677e-05,5793978120.0,3.69794436,0.126620884,2.01181262,1e-06,1e-05,ff
1e-05,0.825,0.825,0.923459262,2.49613249e-05,7.64137932e-06,2.23684025e-05,9.96817971e-06,2.48194129e-05,4350014320.0,2.48986411,0.0984592617,2.67962298,1e-06,1e-05,ff
1.5e-05,0.825,0.825,1.10464947,2.88058893e-05,7.64137932e-06,2.23684025e-05,1.477368e-05,2.77763865e-05,3886927520.0,1.88012644,0.279649469,2.99887205,1e-06,1e-05,ff
2e-05,0.825,0.825,1.26725715,3.13092503e-05,7.64137932e-06,2.23684025e-05,1.92835167e-05,2.6964381e-05,4003978480.0,1.39831242,0.44225715,2.91120404,1e-06,1e-05,ff
2.5e-05,0.825,0.825,1.41926671,3.29517235e-05,7.64137932e-06,2.23684025e-05,2.31200751e-05,2.32467097e-05,4644304620.0,1.00547726,0.594266712,2.50982639,1e-06,1e-05,ff
3e-05,0.825,0.825,1.56489049,3.39970295e-05,7.64137932e-06,2.23684025e-05,2.62200373e-05,1.93300518e-05,5585334290.0,0.737224421,0.739890489,2.0869652,1e-06,1e-05,ff
5e-06,1.2375,0.825,0.698379116,1.85171689e-05,1.84735593e-05,2.74332737e-05,5.03900706e-06,1.86339677e-05,2396613660.0,3.69794436,0.539120884,0.832163586,1e-06,1e-05,ff
1e-05,1.2375,0.825,0.923459262,2.49613249e-05,1.84735593e-05,2.74332737e-05,9.96817971e-06,2.48194129e-05,1799334330.0,2.48986411,0.314040738,1.1083958,1e-06,1e-05,ff
1.5e-05,1.2375,0.825,1.10464947,2.88058893e-05,1.84735593e-05,2.74332737e-05,1.477368e-05,2.77763865e-05,1607783700.0,1.88012644,0.132850531,1.24044958,1e-06,1e-05,ff
2e-05,1.2375,0.825,1.26725715,3.13092503e-05,1.84735593e-05,2.74332737e-05,1.92835167e-05,2.6964381e-05,1656200510.0,1.39831242,0.0297571505,1.2041867,1e-06,1e-05,ff
2.5e-05,1.2375,0.825,1.41926671,3.29517235e-05,1.84735593e-05,2.74332737e-05,2.31200751e-05,2.32467097e-05,1921064190.0,1.00547726,0.181766712,1.03816136,1e-06,1e-05,ff
3e-05,1.2375,0.825,1.56489049,3.39970295e-05,1.84735593e-05,2.74332737e-05,2.62200373e-05,1.93300518e-05,2310310490.0,0.737224421,0.327390489,0.863249603,1e-06,1e-05,ff
5e-06,1.65,0.825,0.698379116,1.85171689e-05,2.77780003e-05,1.7231818e-05,5.03900705e-06,1.86339677e-05,1593850680.0,3.69794436,0.951620884,0.553424408,1e-06,1e-05,ff
1e-05,1.65,0.825,0.923459262,2.49613249e-05,2.77780003e-05,1.7231818e-05,9.96817971e-06,2.48194129e-05,1196634350.0,2.48986411,0.726540738,0.737130656,1e-06,1e-05,ff
1.5e-05,1.65,0.825,1.10464947,2.88058893e-05,2.77780003e-05,1.7231818e-05,1.477368e-05,2.77763865e-05,1069244990.0,1.88012644,0.545350531,0.824952071,1e-06,1e-05,ff
2e-05,1.65,0.825,1.26725715,3.13092503e-05,2.77780003e-05,1.7231818e-05,1.92835167e-05,2.6964381e-05,1101444240.0,1.39831242,0.38274285,0.800835701,1e-06,1e-05,ff
2.5e-05,1.65,0.825,1.41926671,3.29517235e-05,2.77780003e-05,1.7231818e-05,2.31200751e-05,2.32467097e-05,1277589920.0,1.00547726,0.230733288,0.690421747,1e-06,1e-05,ff
3e-05,1.65,0.825,1.56489049,3.39970295e-05,2.77780003e-05,1.7231818e-05,2.62200373e-05,1.93300518e-05,1536455380.0,0.737224421,0.0851095113,0.574097939,1e-06,1e-05,ff
5e-06,0.4125,0.4125,0.698379097,1.85171683e-05,1.06587287e-06,8.26408817e-06,5.03900671e-06,1.86339671e-05,20768886800.0,3.6979445,0.285879097,7.21147115,1e-06,1e-05,ff
1e-05,0.4125,0.4125,0.923459262,2.49613249e-05,1.06587287e-06,8.26408817e-06,9.96817972e-06,2.48194129e-05,15592905300.0,2.4898641,0.510959262,9.60528042,1e-06,1e-05,ff
1.5e-05,0.4125,0.4125,1.10464947,2.88058893e-05,1.06587287e-06,8.26408817e-06,1.477368e-05,2.77763865e-05,13932941000.0,1.88012644,0.692149469,10.7496492,1e-06,1e-05,ff
2e-05,0.4125,0.4125,1.26725715,3.13092503e-05,1.06587287e-06,8.26408817e-06,1.92835167e-05,2.6964381e-05,14352517600.0,1.39831242,0.85475715,10.4353976,1e-06,1e-05,ff
2.5e-05,0.4125,0.4125,1.41926671,3.29517235e-05,1.06587287e-06,8.26408817e-06,2.31200751e-05,2.32467097e-05,16647807800.0,1.00547726,1.00676671,8.99663367,1e-06,1e-05,ff
3e-05,0.4125,0.4125,1.56489049,3.39970295e-05,1.06587287e-06,8.26408817e-06,2.62200373e-05,1.93300518e-05,20020989000.0,0.737224421,1.15239049,7.48086062,1e-06,1e-05,ff
5e-06,0.825,0.4125,0.698379116,1.85171689e-05,6.93671113e-06,1.64410609e-05,5.03900706e-06,1.86339677e-05,3191280690.0,3.69794436,0.126620884,1.10809165,1e-06,1e-05,ff
1e-05,0.825,0.4125,0.923459262,2.49613249e-05,6.93671113e-06,1.64410609e-05,9.96817971e-06,2.48194129e-05,2395956010.0,2.48986411,0.0984592617,1.4759167,1e-06,1e-05,ff
1.5e-05,0.825,0.4125,1.10464947,2.88058893e-05,6.93671113e-06,1.64410609e-05,1.477368e-05,2.77763865e-05,2140891200.0,1.88012644,0.279649469,1.65175675,1e-06,1e-05,ff
2e-05,0.825,0.4125,1.26725715,3.13092503e-05,6.93671113e-06,1.64410609e-05,1.92835167e-05,2.6964381e-05,2205362010.0,1.39831242,0.44225715,1.60346985,1e-06,1e-05,ff
2.5e-05,0.825,0.4125,1.41926671,3.29517235e-05,6.93671113e-06,1.64410609e-05,2.31200751e-05,2.32467097e-05,2558048950.0,1.00547726,0.594266712,1.38239399,1e-06,1e-05,ff
3e-05,0.825,0.4125,1.56489049,3.39970295e-05,6.93671113e-06,1.64410609e-05,2.62200373e-05,1.93300518e-05,3076361200.0,0.737224421,0.739890489,1.14948514,1e-06,1e-05,ff
5e-06,1.2375,0.4125,0.698379116,1.85171689e-05,1.26790766e-05,1.11187778e-05,5.03900706e-06,1.86339677e-05,1745946730.0,3.69794436,0.539120884,0.606235923,1e-06,1e-05,ff
1e-05,1.2375,0.4125,0.923459262,2.49613249e-05,1.26790766e-05,1.11187778e-05,9.96817971e-06,2.48194129e-05,1310825330.0,2.48986411,0.314040738,0.807472669,1e-06,1e-05,ff
1.5e-05,1.2375,0.4125,1.10464947,2.88058893e-05,1.26790766e-05,1.11187778e-05,1.477368e-05,2.77763865e-05,1171279600.0,1.88012644,0.132850531,0.903674599,1e-06,1e-05,ff
2e-05,1.2375,0.4125,1.26725715,3.13092503e-05,1.26790766e-05,1.11187778e-05,1.92835167e-05,2.6964381e-05,1206551520.0,1.39831242,0.0297571505,0.877256881,1e-06,1e-05,ff
2.5e-05,1.2375,0.4125,1.41926671,3.29517235e-05,1.26790766e-05,1.11187778e-05,2.31200751e-05,2.32467097e-05,1399506230.0,1.00547726,0.181766712,0.756306478,1e-06,1e-05,ff
3e-05,1.2375,0.4125,1.56489049,3.39970295e-05,1.26790766e-05,1.11187778e-05,2.62200373e-05,1.93300518e-05,1683074380.0,0.737224421,0.327390489,0.628882263,1e-06,1e-05,ff
5e-06,1.65,0.4125,0.698379116,1.85171689e-05,1.62111102e-05,6.17059084e-06,5.03900705e-06,1.86339677e-05,1365544490.0,3.69794436,0.951620884,0.47415085,1e-06,1e-05,ff
1e-05,1.65,0.4125,0.923459262,2.49613249e-05,1.62111102e-05,6.17059084e-06,9.96817971e-06,2.48194129e-05,1025226190.0,2.48986411,0.726540738,0.631542668,1e-06,1e-05,ff
1.5e-05,1.65,0.4125,1.10464947,2.88058893e-05,1.62111102e-05,6.17059084e-06,1.477368e-05,2.77763865e-05,916084315.0,1.88012644,0.545350531,0.706784378,1e-06,1e-05,ff
2e-05,1.65,0.4125,1.26725715,3.13092503e-05,1.62111102e-05,6.17059084e-06,1.92835167e-05,2.6964381e-05,943671282.0,1.39831242,0.38274285,0.686122482,1e-06,1e-05,ff
